!Created: 10-16-2013 at 09:11:12
!Mini-Circuits
!S2P DATA File Format
!Type: LOW PASS FILTER
!MODEL: LFCN-490D+
!S/N: Unit 1
!PIN OUT: PORT 1 - PIN 1, PORT 2 - PIN 3, GROUND - PIN 2,4
!TEST CONDITIONS: Z:50 OHM SYSTEM, INPUT POWER = -10dBm
!PROD RUN: MDC0070 DATE CODE: 1311
!REMARK: UNITS MOUNTED ON TB-270 RUN#MN43610 D/C 1336. PORT EXTENSION HAS BEEN DONE.
!TESTED ON: NETWORK ANALYZER MODEL AG N5242A S/N 71932 CAL DUE DATE 3/15/14
# MHZ S DB R 50
!Frequency        S11 dB  S11 DEG   S21 dB  S21 DEG   S12 dB  S12 DEG   S22 dB  S22 DEG
  10.0000     -4.032457E+001 -3.513395E+000 -1.561552E-001 -2.147838E+000 -1.548946E-001 -2.242675E+000 -3.955839E+001  2.155878E+000
  11.0000     -3.552271E+001 -4.848784E+001 -1.550607E-001 -1.730280E+000 -1.576161E-001 -1.584093E+000 -3.504362E+001 -4.449058E+001
  12.0000     -3.384266E+001 -5.638486E+001 -1.561547E-001 -1.700588E+000 -1.599567E-001 -1.572682E+000 -3.393741E+001 -5.081707E+001
  13.0000     -3.355154E+001 -5.859801E+001 -1.530189E-001 -1.867336E+000 -1.551229E-001 -1.773054E+000 -3.402320E+001 -5.146637E+001
  14.0000     -3.425740E+001 -5.758394E+001 -1.485785E-001 -2.187902E+000 -1.491341E-001 -2.091755E+000 -3.480463E+001 -4.820500E+001
  15.0000     -3.569046E+001 -5.158474E+001 -1.419673E-001 -2.588431E+000 -1.440278E-001 -2.535225E+000 -3.662569E+001 -4.114254E+001
  16.0000     -3.766629E+001 -4.159020E+001 -1.436073E-001 -3.051332E+000 -1.412309E-001 -2.961732E+000 -3.758944E+001 -2.794434E+001
  17.0000     -3.939961E+001 -2.235773E+001 -1.445221E-001 -3.532244E+000 -1.443840E-001 -3.452145E+000 -3.819003E+001 -8.351007E+000
  18.0000     -3.966183E+001  2.435236E+000 -1.502018E-001 -4.003542E+000 -1.486516E-001 -3.924246E+000 -3.744048E+001  9.646558E+000
  19.0000     -3.823269E+001  2.248022E+001 -1.570871E-001 -4.463433E+000 -1.550969E-001 -4.385798E+000 -3.617611E+001  2.269633E+001
  20.0000     -3.666858E+001  3.374751E+001 -1.673211E-001 -4.886581E+000 -1.646769E-001 -4.798417E+000 -3.477071E+001  2.898866E+001
  21.0000     -3.530193E+001  3.957883E+001 -1.731408E-001 -5.256612E+000 -1.696735E-001 -5.192315E+000 -3.394133E+001  3.349934E+001
  22.0000     -3.433880E+001  4.256635E+001 -1.794020E-001 -5.585633E+000 -1.765616E-001 -5.524627E+000 -3.326865E+001  3.543827E+001
  23.0000     -3.369323E+001  4.373167E+001 -1.846507E-001 -5.882052E+000 -1.820765E-001 -5.811760E+000 -3.281802E+001  3.663008E+001
  24.0000     -3.324143E+001  4.428840E+001 -1.881797E-001 -6.148717E+000 -1.862218E-001 -6.073789E+000 -3.254401E+001  3.718792E+001
  25.0000     -3.296421E+001  4.409274E+001 -1.913862E-001 -6.381148E+000 -1.883110E-001 -6.307132E+000 -3.240835E+001  3.738608E+001
  26.0000     -3.290033E+001  4.400292E+001 -1.909337E-001 -6.596174E+000 -1.890800E-001 -6.527268E+000 -3.242622E+001  3.715654E+001
  27.0000     -3.287234E+001  4.354488E+001 -1.900774E-001 -6.803354E+000 -1.884693E-001 -6.723544E+000 -3.252064E+001  3.734497E+001
  28.0000     -3.288926E+001  4.319196E+001 -1.887033E-001 -6.998880E+000 -1.867754E-001 -6.914679E+000 -3.268965E+001  3.725139E+001
  29.0000     -3.295588E+001  4.274033E+001 -1.878228E-001 -7.194265E+000 -1.855542E-001 -7.112936E+000 -3.279839E+001  3.743837E+001
  30.0000     -3.297133E+001  4.264107E+001 -1.860007E-001 -7.392896E+000 -1.833761E-001 -7.317059E+000 -3.292664E+001  3.770070E+001
  31.0000     -3.295703E+001  4.272725E+001 -1.851046E-001 -7.602033E+000 -1.828001E-001 -7.531652E+000 -3.291995E+001  3.837252E+001
  32.0000     -3.284926E+001  4.311924E+001 -1.845819E-001 -7.826124E+000 -1.829610E-001 -7.765128E+000 -3.287196E+001  3.895393E+001
  33.0000     -3.267578E+001  4.338656E+001 -1.849702E-001 -8.058270E+000 -1.829806E-001 -7.996562E+000 -3.277717E+001  3.973203E+001
  34.0000     -3.245983E+001  4.377601E+001 -1.860834E-001 -8.305712E+000 -1.843651E-001 -8.241269E+000 -3.259026E+001  4.036422E+001
  35.0000     -3.223985E+001  4.431724E+001 -1.881117E-001 -8.548953E+000 -1.843171E-001 -8.500534E+000 -3.228044E+001  4.153511E+001
  36.0000     -3.199464E+001  4.437152E+001 -1.893522E-001 -8.809841E+000 -1.880114E-001 -8.739779E+000 -3.215474E+001  4.097381E+001
  37.0000     -3.175315E+001  4.459343E+001 -1.919287E-001 -9.065580E+000 -1.904268E-001 -8.999125E+000 -3.196854E+001  4.135758E+001
  38.0000     -3.153660E+001  4.471354E+001 -1.941464E-001 -9.322120E+000 -1.928751E-001 -9.258982E+000 -3.176764E+001  4.180771E+001
  39.0000     -3.131421E+001  4.481829E+001 -1.969695E-001 -9.580514E+000 -1.950821E-001 -9.516157E+000 -3.152660E+001  4.239528E+001
  40.0000     -3.109883E+001  4.487259E+001 -1.993764E-001 -9.830230E+000 -1.963719E-001 -9.776012E+000 -3.132677E+001  4.253378E+001
  41.0000     -3.092865E+001  4.511860E+001 -2.012306E-001 -1.008764E+001 -1.994083E-001 -1.002916E+001 -3.111823E+001  4.293005E+001
  42.0000     -3.077617E+001  4.513678E+001 -2.037140E-001 -1.033734E+001 -2.014243E-001 -1.027871E+001 -3.090935E+001  4.330337E+001
  43.0000     -3.062992E+001  4.519244E+001 -2.050393E-001 -1.058428E+001 -2.024594E-001 -1.052139E+001 -3.075083E+001  4.347345E+001
  44.0000     -3.049532E+001  4.523117E+001 -2.060927E-001 -1.082360E+001 -2.040962E-001 -1.076574E+001 -3.060341E+001  4.395467E+001
  45.0000     -3.035748E+001  4.520855E+001 -2.075345E-001 -1.106499E+001 -2.053763E-001 -1.101191E+001 -3.047638E+001  4.401610E+001
  46.0000     -3.024953E+001  4.521327E+001 -2.085835E-001 -1.130450E+001 -2.065545E-001 -1.125223E+001 -3.034788E+001  4.425117E+001
  47.0000     -3.015692E+001  4.533028E+001 -2.093147E-001 -1.154293E+001 -2.073614E-001 -1.149805E+001 -3.022775E+001  4.435986E+001
  48.0000     -3.004763E+001  4.535588E+001 -2.101224E-001 -1.178137E+001 -2.087489E-001 -1.173432E+001 -3.010390E+001  4.464530E+001
  49.0000     -2.994093E+001  4.538747E+001 -2.109857E-001 -1.201803E+001 -2.094058E-001 -1.197205E+001 -2.997731E+001  4.467915E+001
  50.0000     -2.924751E+001  4.574318E+001 -2.071083E-001 -1.228319E+001 -2.167209E-001 -1.211864E+001 -3.033772E+001  4.561670E+001
  51.0000     -2.970755E+001  4.548068E+001 -2.130779E-001 -1.249496E+001 -2.111025E-001 -1.245080E+001 -2.975480E+001  4.502239E+001
  52.0000     -2.960137E+001  4.556342E+001 -2.141419E-001 -1.273068E+001 -2.123202E-001 -1.269082E+001 -2.963502E+001  4.511358E+001
  53.0000     -2.948494E+001  4.544842E+001 -2.156500E-001 -1.296912E+001 -2.138994E-001 -1.293345E+001 -2.950206E+001  4.527885E+001
  54.0000     -2.939570E+001  4.491085E+001 -2.171208E-001 -1.318683E+001 -2.156138E-001 -1.314657E+001 -2.950066E+001  4.512512E+001
  55.0000     -2.924610E+001  4.468640E+001 -2.181575E-001 -1.342752E+001 -2.177911E-001 -1.338832E+001 -2.935946E+001  4.500648E+001
  56.0000     -2.912144E+001  4.466483E+001 -2.197022E-001 -1.366737E+001 -2.190742E-001 -1.363202E+001 -2.924257E+001  4.499501E+001
  57.0000     -2.898600E+001  4.445804E+001 -2.209061E-001 -1.390873E+001 -2.201455E-001 -1.387111E+001 -2.914253E+001  4.503664E+001
  58.0000     -2.886594E+001  4.433345E+001 -2.221843E-001 -1.414880E+001 -2.215923E-001 -1.411324E+001 -2.901618E+001  4.499428E+001
  59.0000     -2.873708E+001  4.421732E+001 -2.230897E-001 -1.438934E+001 -2.226643E-001 -1.435329E+001 -2.891750E+001  4.497184E+001
  60.0000     -2.875348E+001  4.502018E+001 -2.200176E-001 -1.463472E+001 -2.231545E-001 -1.456055E+001 -2.901029E+001  4.514465E+001
  61.0000     -2.851737E+001  4.400568E+001 -2.257332E-001 -1.487203E+001 -2.255670E-001 -1.483805E+001 -2.869862E+001  4.479670E+001
  62.0000     -2.840922E+001  4.390783E+001 -2.270554E-001 -1.511299E+001 -2.266148E-001 -1.507829E+001 -2.859672E+001  4.472983E+001
  63.0000     -2.831103E+001  4.370034E+001 -2.285549E-001 -1.535248E+001 -2.282187E-001 -1.532149E+001 -2.850582E+001  4.466047E+001
  64.0000     -2.821625E+001  4.359379E+001 -2.299954E-001 -1.559153E+001 -2.291113E-001 -1.556326E+001 -2.839951E+001  4.468454E+001
  65.0000     -2.813415E+001  4.338383E+001 -2.304384E-001 -1.583119E+001 -2.301595E-001 -1.580254E+001 -2.831829E+001  4.444231E+001
  66.0000     -2.803737E+001  4.326976E+001 -2.322530E-001 -1.606930E+001 -2.317854E-001 -1.604509E+001 -2.820274E+001  4.452128E+001
  67.0000     -2.795695E+001  4.314314E+001 -2.334970E-001 -1.631198E+001 -2.329278E-001 -1.628256E+001 -2.810138E+001  4.433664E+001
  68.0000     -2.786746E+001  4.296335E+001 -2.351271E-001 -1.655104E+001 -2.341572E-001 -1.652293E+001 -2.801299E+001  4.423897E+001
  69.0000     -2.778853E+001  4.278564E+001 -2.366033E-001 -1.678918E+001 -2.355518E-001 -1.676335E+001 -2.792156E+001  4.409794E+001
  70.0000     -2.769061E+001  4.265988E+001 -2.377746E-001 -1.702549E+001 -2.366805E-001 -1.700109E+001 -2.784735E+001  4.397435E+001
  71.0000     -2.762122E+001  4.242278E+001 -2.392367E-001 -1.726119E+001 -2.377760E-001 -1.724365E+001 -2.774746E+001  4.381287E+001
  72.0000     -2.753913E+001  4.226499E+001 -2.405308E-001 -1.750015E+001 -2.390866E-001 -1.748258E+001 -2.766797E+001  4.366530E+001
  73.0000     -2.745521E+001  4.210455E+001 -2.416038E-001 -1.773927E+001 -2.407071E-001 -1.772206E+001 -2.758515E+001  4.353730E+001
  74.0000     -2.738693E+001  4.196880E+001 -2.432475E-001 -1.797548E+001 -2.422063E-001 -1.795907E+001 -2.750423E+001  4.333909E+001
  75.0000     -2.727529E+001  4.186507E+001 -2.444171E-001 -1.822435E+001 -2.418634E-001 -1.819478E+001 -2.744018E+001  4.328333E+001
  76.0000     -2.721777E+001  4.168125E+001 -2.457950E-001 -1.845374E+001 -2.441639E-001 -1.843710E+001 -2.734894E+001  4.300805E+001
  77.0000     -2.714300E+001  4.154094E+001 -2.468091E-001 -1.869119E+001 -2.453346E-001 -1.867743E+001 -2.726757E+001  4.284276E+001
  78.0000     -2.706152E+001  4.138848E+001 -2.482514E-001 -1.892889E+001 -2.468002E-001 -1.891489E+001 -2.718972E+001  4.275309E+001
  79.0000     -2.697800E+001  4.129049E+001 -2.497686E-001 -1.916811E+001 -2.482915E-001 -1.915527E+001 -2.710679E+001  4.255379E+001
  80.0000     -2.690595E+001  4.111715E+001 -2.509817E-001 -1.940792E+001 -2.492138E-001 -1.939257E+001 -2.702224E+001  4.243265E+001
  81.0000     -2.681368E+001  4.102787E+001 -2.515960E-001 -1.964441E+001 -2.510997E-001 -1.963298E+001 -2.695613E+001  4.225449E+001
  82.0000     -2.674303E+001  4.088939E+001 -2.528492E-001 -1.988136E+001 -2.524212E-001 -1.987126E+001 -2.687336E+001  4.215548E+001
  83.0000     -2.666112E+001  4.073475E+001 -2.544080E-001 -2.011969E+001 -2.533874E-001 -2.011135E+001 -2.679814E+001  4.200479E+001
  84.0000     -2.657765E+001  4.059387E+001 -2.556955E-001 -2.035894E+001 -2.542278E-001 -2.035158E+001 -2.671941E+001  4.187636E+001
  85.0000     -2.649258E+001  4.047419E+001 -2.568544E-001 -2.059905E+001 -2.552560E-001 -2.059262E+001 -2.664568E+001  4.179872E+001
  86.0000     -2.641723E+001  4.033675E+001 -2.577595E-001 -2.083756E+001 -2.560542E-001 -2.083250E+001 -2.657345E+001  4.168270E+001
  87.0000     -2.634193E+001  4.028780E+001 -2.584762E-001 -2.107747E+001 -2.573368E-001 -2.107395E+001 -2.650052E+001  4.153957E+001
  88.0000     -2.626651E+001  4.013400E+001 -2.595726E-001 -2.131648E+001 -2.583632E-001 -2.131233E+001 -2.642999E+001  4.142619E+001
  89.0000     -2.619178E+001  3.995957E+001 -2.605499E-001 -2.155644E+001 -2.595225E-001 -2.155036E+001 -2.636621E+001  4.128718E+001
  90.0000     -2.611273E+001  3.997360E+001 -2.618988E-001 -2.179701E+001 -2.600778E-001 -2.179214E+001 -2.630644E+001  4.111279E+001
  91.0000     -2.605256E+001  3.964134E+001 -2.628933E-001 -2.203267E+001 -2.615023E-001 -2.202992E+001 -2.623428E+001  4.109081E+001
  92.0000     -2.598520E+001  3.949467E+001 -2.639478E-001 -2.227274E+001 -2.625123E-001 -2.226809E+001 -2.617377E+001  4.096162E+001
  93.0000     -2.592497E+001  3.930122E+001 -2.650758E-001 -2.251177E+001 -2.635558E-001 -2.250562E+001 -2.611415E+001  4.082231E+001
  94.0000     -2.586015E+001  3.908981E+001 -2.658493E-001 -2.274796E+001 -2.648206E-001 -2.274300E+001 -2.605540E+001  4.069304E+001
  95.0000     -2.579865E+001  3.889887E+001 -2.668853E-001 -2.298732E+001 -2.661240E-001 -2.298132E+001 -2.600360E+001  4.058232E+001
  96.0000     -2.574743E+001  3.872433E+001 -2.678812E-001 -2.322523E+001 -2.669769E-001 -2.321926E+001 -2.594686E+001  4.046525E+001
  97.0000     -2.568919E+001  3.852454E+001 -2.689232E-001 -2.346371E+001 -2.678639E-001 -2.345883E+001 -2.589472E+001  4.031414E+001
  98.0000     -2.563036E+001  3.835413E+001 -2.697594E-001 -2.370209E+001 -2.691066E-001 -2.369677E+001 -2.584594E+001  4.018109E+001
  99.0000     -2.557469E+001  3.813655E+001 -2.710064E-001 -2.394027E+001 -2.701290E-001 -2.393608E+001 -2.579277E+001  4.003594E+001
 100.0000     -2.552270E+001  3.787122E+001 -2.717754E-001 -2.417937E+001 -2.719219E-001 -2.417352E+001 -2.574356E+001  3.993072E+001
 101.0000     -2.546325E+001  3.770857E+001 -2.728046E-001 -2.441872E+001 -2.721896E-001 -2.441319E+001 -2.569178E+001  3.978776E+001
 102.0000     -2.541137E+001  3.754114E+001 -2.740381E-001 -2.465833E+001 -2.732535E-001 -2.465194E+001 -2.564413E+001  3.966254E+001
 103.0000     -2.535430E+001  3.730691E+001 -2.751694E-001 -2.489760E+001 -2.739613E-001 -2.489096E+001 -2.559447E+001  3.951572E+001
 104.0000     -2.530268E+001  3.710069E+001 -2.762221E-001 -2.513705E+001 -2.753544E-001 -2.512965E+001 -2.554155E+001  3.944517E+001
 105.0000     -2.525432E+001  3.690482E+001 -2.772175E-001 -2.537741E+001 -2.764796E-001 -2.536901E+001 -2.549452E+001  3.932392E+001
 106.0000     -2.520517E+001  3.664302E+001 -2.792033E-001 -2.561277E+001 -2.779485E-001 -2.560495E+001 -2.545970E+001  3.916628E+001
 107.0000     -2.515328E+001  3.644440E+001 -2.805625E-001 -2.585218E+001 -2.788310E-001 -2.584505E+001 -2.541137E+001  3.901028E+001
 108.0000     -2.510511E+001  3.622139E+001 -2.816111E-001 -2.608954E+001 -2.796896E-001 -2.608474E+001 -2.536432E+001  3.892096E+001
 109.0000     -2.505750E+001  3.606628E+001 -2.827292E-001 -2.632971E+001 -2.812512E-001 -2.632264E+001 -2.531156E+001  3.876103E+001
 110.0000     -2.498847E+001  3.590131E+001 -2.835178E-001 -2.656586E+001 -2.811288E-001 -2.656142E+001 -2.526297E+001  3.870984E+001
 111.0000     -2.496361E+001  3.569974E+001 -2.846624E-001 -2.680754E+001 -2.827636E-001 -2.680238E+001 -2.521200E+001  3.852061E+001
 112.0000     -2.491436E+001  3.556262E+001 -2.857279E-001 -2.704775E+001 -2.837964E-001 -2.704141E+001 -2.516115E+001  3.838516E+001
 113.0000     -2.486069E+001  3.534694E+001 -2.869943E-001 -2.728570E+001 -2.850383E-001 -2.728301E+001 -2.511665E+001  3.829292E+001
 114.0000     -2.481587E+001  3.514780E+001 -2.882625E-001 -2.752630E+001 -2.863519E-001 -2.752277E+001 -2.506949E+001  3.816470E+001
 115.0000     -2.477313E+001  3.498765E+001 -2.894784E-001 -2.776507E+001 -2.872101E-001 -2.776108E+001 -2.501893E+001  3.804239E+001
 116.0000     -2.471721E+001  3.476852E+001 -2.904463E-001 -2.800455E+001 -2.888177E-001 -2.799980E+001 -2.497677E+001  3.788553E+001
 117.0000     -2.466568E+001  3.460472E+001 -2.916859E-001 -2.824579E+001 -2.901990E-001 -2.823868E+001 -2.492809E+001  3.778013E+001
 118.0000     -2.462369E+001  3.443326E+001 -2.927728E-001 -2.848432E+001 -2.910455E-001 -2.847955E+001 -2.487860E+001  3.765308E+001
 119.0000     -2.457111E+001  3.427539E+001 -2.940432E-001 -2.872284E+001 -2.921928E-001 -2.871962E+001 -2.483255E+001  3.748482E+001
 120.0000     -2.452097E+001  3.407133E+001 -2.951863E-001 -2.896367E+001 -2.929368E-001 -2.895961E+001 -2.477499E+001  3.737705E+001
 121.0000     -2.447085E+001  3.399300E+001 -2.961870E-001 -2.920254E+001 -2.942456E-001 -2.919978E+001 -2.474358E+001  3.720917E+001
 122.0000     -2.442231E+001  3.381375E+001 -2.975098E-001 -2.944209E+001 -2.952702E-001 -2.943727E+001 -2.470331E+001  3.708726E+001
 123.0000     -2.437051E+001  3.359488E+001 -2.985261E-001 -2.968175E+001 -2.964219E-001 -2.967806E+001 -2.465265E+001  3.692592E+001
 124.0000     -2.432411E+001  3.341289E+001 -2.995836E-001 -2.992214E+001 -2.978550E-001 -2.991638E+001 -2.460447E+001  3.677603E+001
 125.0000     -2.427778E+001  3.311006E+001 -3.014114E-001 -3.016426E+001 -2.989919E-001 -3.015448E+001 -2.455229E+001  3.650670E+001
 126.0000     -2.422558E+001  3.307893E+001 -3.018792E-001 -3.040152E+001 -3.000707E-001 -3.039683E+001 -2.451116E+001  3.651936E+001
 127.0000     -2.417496E+001  3.287953E+001 -3.027234E-001 -3.064088E+001 -3.012850E-001 -3.063654E+001 -2.446885E+001  3.641424E+001
 128.0000     -2.412671E+001  3.270513E+001 -3.037665E-001 -3.088043E+001 -3.022215E-001 -3.087697E+001 -2.442305E+001  3.629083E+001
 129.0000     -2.407725E+001  3.253148E+001 -3.048359E-001 -3.112038E+001 -3.034945E-001 -3.111721E+001 -2.437581E+001  3.609212E+001
 130.0000     -2.403146E+001  3.230470E+001 -3.057625E-001 -3.136165E+001 -3.044859E-001 -3.135699E+001 -2.433223E+001  3.600198E+001
 131.0000     -2.398185E+001  3.213007E+001 -3.067278E-001 -3.159764E+001 -3.056697E-001 -3.159657E+001 -2.428727E+001  3.584998E+001
 132.0000     -2.392872E+001  3.194035E+001 -3.076067E-001 -3.183908E+001 -3.067207E-001 -3.183837E+001 -2.423805E+001  3.571161E+001
 133.0000     -2.388216E+001  3.178866E+001 -3.086545E-001 -3.207948E+001 -3.076476E-001 -3.207600E+001 -2.420198E+001  3.554450E+001
 134.0000     -2.383678E+001  3.158930E+001 -3.100095E-001 -3.231936E+001 -3.083896E-001 -3.231540E+001 -2.415706E+001  3.539782E+001
 135.0000     -2.378783E+001  3.145089E+001 -3.109150E-001 -3.255993E+001 -3.094521E-001 -3.255592E+001 -2.411946E+001  3.525998E+001
 136.0000     -2.373665E+001  3.124532E+001 -3.118594E-001 -3.279948E+001 -3.101537E-001 -3.279410E+001 -2.407775E+001  3.509263E+001
 137.0000     -2.369000E+001  3.100170E+001 -3.123874E-001 -3.304094E+001 -3.116163E-001 -3.303514E+001 -2.402791E+001  3.497500E+001
 138.0000     -2.364452E+001  3.080806E+001 -3.135111E-001 -3.328109E+001 -3.127900E-001 -3.327591E+001 -2.399029E+001  3.483482E+001
 139.0000     -2.359384E+001  3.061582E+001 -3.145379E-001 -3.352069E+001 -3.136264E-001 -3.351548E+001 -2.395010E+001  3.467299E+001
 140.0000     -2.354959E+001  3.043059E+001 -3.155323E-001 -3.376404E+001 -3.139818E-001 -3.375506E+001 -2.391119E+001  3.452422E+001
 141.0000     -2.350491E+001  3.023308E+001 -3.164878E-001 -3.400154E+001 -3.152685E-001 -3.399650E+001 -2.387021E+001  3.440169E+001
 142.0000     -2.345603E+001  3.002520E+001 -3.174243E-001 -3.424098E+001 -3.161657E-001 -3.423613E+001 -2.383298E+001  3.422893E+001
 143.0000     -2.341813E+001  2.976660E+001 -3.181985E-001 -3.448203E+001 -3.172128E-001 -3.447669E+001 -2.379212E+001  3.408895E+001
 144.0000     -2.337177E+001  2.960416E+001 -3.190339E-001 -3.472343E+001 -3.181840E-001 -3.471821E+001 -2.374919E+001  3.392282E+001
 145.0000     -2.332519E+001  2.940254E+001 -3.193899E-001 -3.496482E+001 -3.188157E-001 -3.495669E+001 -2.371411E+001  3.375069E+001
 146.0000     -2.328297E+001  2.917770E+001 -3.213998E-001 -3.520436E+001 -3.198284E-001 -3.519881E+001 -2.367349E+001  3.362378E+001
 147.0000     -2.326341E+001  2.894377E+001 -3.233792E-001 -3.543944E+001 -3.218341E-001 -3.543916E+001 -2.364459E+001  3.349326E+001
 148.0000     -2.322314E+001  2.871134E+001 -3.242291E-001 -3.568056E+001 -3.227752E-001 -3.567954E+001 -2.359873E+001  3.328364E+001
 149.0000     -2.318227E+001  2.847953E+001 -3.253275E-001 -3.592298E+001 -3.238980E-001 -3.591950E+001 -2.356341E+001  3.316008E+001
 150.0000     -2.312794E+001  2.826103E+001 -3.256271E-001 -3.615983E+001 -3.247304E-001 -3.616687E+001 -2.353062E+001  3.315575E+001
 151.0000     -2.310530E+001  2.803655E+001 -3.273460E-001 -3.640467E+001 -3.258038E-001 -3.640213E+001 -2.349028E+001  3.287622E+001
 152.0000     -2.306623E+001  2.782572E+001 -3.282407E-001 -3.664539E+001 -3.269093E-001 -3.664317E+001 -2.345442E+001  3.270790E+001
 153.0000     -2.302835E+001  2.762318E+001 -3.291149E-001 -3.688661E+001 -3.281899E-001 -3.688207E+001 -2.341713E+001  3.254129E+001
 154.0000     -2.298846E+001  2.740270E+001 -3.308530E-001 -3.712648E+001 -3.289084E-001 -3.712505E+001 -2.338968E+001  3.238417E+001
