!Created: 10-16-2013 at 09:11:33
!Mini-Circuits
!S2P DATA File Format
!Type: LOW PASS FILTER
!MODEL: LFCN-490D+
!S/N: Unit 2
!PIN OUT: PORT 1 - PIN 1, PORT 2 - PIN 3, GROUND - PIN 2,4
!TEST CONDITIONS: Z:50 OHM SYSTEM, INPUT POWER = -10dBm
!PROD RUN: MDC0070 DATE CODE: 1311
!REMARK: UNITS MOUNTED ON TB-270 RUN#MN43610 D/C 1336. PORT EXTENSION HAS BEEN DONE.
!TESTED ON: NETWORK ANALYZER MODEL AG N5242A S/N 71932 CAL DUE DATE 3/15/14
# MHZ S DB R 50
!Frequency        S11 dB  S11 DEG   S21 dB  S21 DEG   S12 dB  S12 DEG   S22 dB  S22 DEG
  10.0000     -3.727705E+001 -1.311490E+001 -1.600971E-001 -2.166554E+000 -1.563248E-001 -2.127275E+000 -3.973539E+001 -2.326095E+000
  11.0000     -3.530062E+001 -5.096231E+001 -1.536676E-001 -1.744976E+000 -1.564256E-001 -1.587430E+000 -3.485264E+001 -4.636553E+001
  12.0000     -3.363076E+001 -5.830281E+001 -1.553815E-001 -1.713911E+000 -1.575211E-001 -1.582467E+000 -3.374006E+001 -5.234233E+001
  13.0000     -3.331880E+001 -6.010762E+001 -1.519191E-001 -1.886891E+000 -1.531847E-001 -1.781796E+000 -3.380557E+001 -5.314909E+001
  14.0000     -3.404604E+001 -5.934728E+001 -1.474063E-001 -2.209465E+000 -1.475391E-001 -2.107084E+000 -3.455441E+001 -5.016984E+001
  15.0000     -3.536736E+001 -5.395081E+001 -1.408381E-001 -2.608010E+000 -1.450779E-001 -2.546116E+000 -3.638774E+001 -4.407265E+001
  16.0000     -3.742554E+001 -4.546039E+001 -1.424771E-001 -3.076557E+000 -1.413486E-001 -2.994454E+000 -3.737284E+001 -3.186457E+001
  17.0000     -3.927961E+001 -2.753448E+001 -1.436723E-001 -3.558541E+000 -1.433994E-001 -3.480071E+000 -3.819418E+001 -1.301305E+001
  18.0000     -3.989589E+001 -2.939437E+000 -1.493958E-001 -4.029904E+000 -1.485204E-001 -3.964976E+000 -3.765847E+001  5.361197E+000
  19.0000     -3.874178E+001  1.839270E+001 -1.561851E-001 -4.493532E+000 -1.549829E-001 -4.423630E+000 -3.650892E+001  1.913246E+001
  20.0000     -3.724324E+001  3.061981E+001 -1.659681E-001 -4.919065E+000 -1.634295E-001 -4.839798E+000 -3.513124E+001  2.611240E+001
  21.0000     -3.578838E+001  3.703632E+001 -1.717415E-001 -5.289645E+000 -1.691754E-001 -5.224981E+000 -3.430659E+001  3.097742E+001
  22.0000     -3.480414E+001  4.031031E+001 -1.783975E-001 -5.621748E+000 -1.761254E-001 -5.560093E+000 -3.364508E+001  3.307833E+001
  23.0000     -3.414563E+001  4.158020E+001 -1.838157E-001 -5.921798E+000 -1.814599E-001 -5.850492E+000 -3.320685E+001  3.432333E+001
  24.0000     -3.371691E+001  4.214716E+001 -1.873917E-001 -6.188303E+000 -1.849844E-001 -6.110719E+000 -3.292517E+001  3.485246E+001
  25.0000     -3.341425E+001  4.190715E+001 -1.894339E-001 -6.417514E+000 -1.878537E-001 -6.347413E+000 -3.281052E+001  3.506321E+001
  26.0000     -3.337844E+001  4.188356E+001 -1.899790E-001 -6.639796E+000 -1.878302E-001 -6.565894E+000 -3.283604E+001  3.463610E+001
  27.0000     -3.334649E+001  4.117192E+001 -1.892131E-001 -6.847608E+000 -1.875922E-001 -6.770011E+000 -3.295024E+001  3.474928E+001
  28.0000     -3.340274E+001  4.075133E+001 -1.875978E-001 -7.045583E+000 -1.859605E-001 -6.961246E+000 -3.314435E+001  3.443901E+001
  29.0000     -3.346674E+001  4.027100E+001 -1.861546E-001 -7.241414E+000 -1.840839E-001 -7.159566E+000 -3.327813E+001  3.453693E+001
  30.0000     -3.354600E+001  4.004103E+001 -1.844301E-001 -7.438436E+000 -1.809053E-001 -7.363303E+000 -3.342985E+001  3.469031E+001
  31.0000     -3.351062E+001  3.983947E+001 -1.831394E-001 -7.652664E+000 -1.824940E-001 -7.588090E+000 -3.345400E+001  3.530664E+001
  32.0000     -3.341584E+001  4.019102E+001 -1.831412E-001 -7.879683E+000 -1.817792E-001 -7.814137E+000 -3.343061E+001  3.591182E+001
  33.0000     -3.326515E+001  4.053460E+001 -1.836041E-001 -8.112872E+000 -1.816244E-001 -8.044129E+000 -3.334827E+001  3.657723E+001
  34.0000     -3.305336E+001  4.090480E+001 -1.848209E-001 -8.361744E+000 -1.826590E-001 -8.288927E+000 -3.316238E+001  3.731425E+001
  35.0000     -3.283846E+001  4.067083E+001 -1.868109E-001 -8.605818E+000 -1.853392E-001 -8.543416E+000 -3.287441E+001  3.862564E+001
  36.0000     -3.260952E+001  4.148125E+001 -1.876392E-001 -8.869373E+000 -1.872019E-001 -8.795918E+000 -3.274423E+001  3.793423E+001
  37.0000     -3.236581E+001  4.186643E+001 -1.901564E-001 -9.124454E+000 -1.889498E-001 -9.056026E+000 -3.256698E+001  3.833418E+001
  38.0000     -3.214466E+001  4.194490E+001 -1.925168E-001 -9.383433E+000 -1.912527E-001 -9.318768E+000 -3.237098E+001  3.880789E+001
  39.0000     -3.192927E+001  4.208392E+001 -1.948493E-001 -9.644577E+000 -1.936416E-001 -9.580879E+000 -3.213358E+001  3.953964E+001
  40.0000     -3.174468E+001  4.227624E+001 -1.975650E-001 -9.898069E+000 -1.952032E-001 -9.840595E+000 -3.193753E+001  3.965067E+001
  41.0000     -3.156209E+001  4.238303E+001 -1.992711E-001 -1.015372E+001 -1.974464E-001 -1.009414E+001 -3.173338E+001  4.007933E+001
  42.0000     -3.141019E+001  4.247295E+001 -2.015854E-001 -1.040631E+001 -1.993756E-001 -1.034152E+001 -3.152453E+001  4.041423E+001
  43.0000     -3.127841E+001  4.248870E+001 -2.029088E-001 -1.065527E+001 -2.010099E-001 -1.058757E+001 -3.137631E+001  4.068615E+001
  44.0000     -3.114952E+001  4.248020E+001 -2.038362E-001 -1.089746E+001 -2.024757E-001 -1.084100E+001 -3.124745E+001  4.108659E+001
  45.0000     -3.101878E+001  4.260320E+001 -2.055193E-001 -1.114011E+001 -2.034330E-001 -1.108653E+001 -3.112165E+001  4.125758E+001
  46.0000     -3.091361E+001  4.250988E+001 -2.063987E-001 -1.138148E+001 -2.051923E-001 -1.132991E+001 -3.099096E+001  4.142430E+001
  47.0000     -3.083237E+001  4.270161E+001 -2.070611E-001 -1.161981E+001 -2.056156E-001 -1.157330E+001 -3.087832E+001  4.156979E+001
  48.0000     -3.072378E+001  4.268801E+001 -2.077926E-001 -1.186127E+001 -2.068322E-001 -1.181265E+001 -3.076008E+001  4.185859E+001
  49.0000     -3.063831E+001  4.270497E+001 -2.087591E-001 -1.210062E+001 -2.078245E-001 -1.205589E+001 -3.064196E+001  4.186141E+001
  50.0000     -2.992866E+001  4.319826E+001 -2.046643E-001 -1.236742E+001 -2.284454E-001 -1.224015E+001 -3.108686E+001  4.274105E+001
  51.0000     -3.041556E+001  4.280567E+001 -2.107317E-001 -1.257911E+001 -2.095638E-001 -1.253703E+001 -3.043307E+001  4.223124E+001
  52.0000     -3.031181E+001  4.288681E+001 -2.119134E-001 -1.281768E+001 -2.105434E-001 -1.277869E+001 -3.031567E+001  4.231573E+001
  53.0000     -3.020031E+001  4.279541E+001 -2.134138E-001 -1.305760E+001 -2.119999E-001 -1.302013E+001 -3.018912E+001  4.252875E+001
  54.0000     -3.011588E+001  4.224289E+001 -2.144570E-001 -1.327745E+001 -2.133303E-001 -1.323380E+001 -3.020596E+001  4.234048E+001
  55.0000     -2.996850E+001  4.200663E+001 -2.155686E-001 -1.351832E+001 -2.152981E-001 -1.347674E+001 -3.006270E+001  4.224356E+001
  56.0000     -2.983602E+001  4.195010E+001 -2.171478E-001 -1.376051E+001 -2.163573E-001 -1.371867E+001 -2.994763E+001  4.224586E+001
  57.0000     -2.970499E+001  4.177399E+001 -2.181008E-001 -1.400282E+001 -2.179595E-001 -1.396223E+001 -2.986172E+001  4.225978E+001
  58.0000     -2.958130E+001  4.160706E+001 -2.198832E-001 -1.424474E+001 -2.192770E-001 -1.420421E+001 -2.973364E+001  4.225724E+001
  59.0000     -2.946166E+001  4.148323E+001 -2.209850E-001 -1.448752E+001 -2.207083E-001 -1.444693E+001 -2.963905E+001  4.219655E+001
  60.0000     -2.934168E+001  4.139479E+001 -2.176277E-001 -1.473540E+001 -2.283446E-001 -1.466854E+001 -2.976458E+001  4.244197E+001
  61.0000     -2.923792E+001  4.130014E+001 -2.236246E-001 -1.497244E+001 -2.239213E-001 -1.493509E+001 -2.943288E+001  4.202579E+001
  62.0000     -2.913914E+001  4.118597E+001 -2.250459E-001 -1.521688E+001 -2.247926E-001 -1.517893E+001 -2.932644E+001  4.198464E+001
  63.0000     -2.903281E+001  4.095124E+001 -2.261946E-001 -1.545733E+001 -2.254673E-001 -1.542295E+001 -2.924155E+001  4.193330E+001
  64.0000     -2.894718E+001  4.082906E+001 -2.278250E-001 -1.569991E+001 -2.267078E-001 -1.566816E+001 -2.914270E+001  4.194764E+001
  65.0000     -2.884386E+001  4.073122E+001 -2.280120E-001 -1.593983E+001 -2.283023E-001 -1.590181E+001 -2.906249E+001  4.168816E+001
  66.0000     -2.877273E+001  4.046518E+001 -2.300140E-001 -1.618156E+001 -2.295315E-001 -1.615272E+001 -2.895252E+001  4.181271E+001
  67.0000     -2.869492E+001  4.035328E+001 -2.313422E-001 -1.642379E+001 -2.305500E-001 -1.639228E+001 -2.885510E+001  4.162568E+001
  68.0000     -2.860531E+001  4.011776E+001 -2.326884E-001 -1.666715E+001 -2.317635E-001 -1.663277E+001 -2.876935E+001  4.151306E+001
  69.0000     -2.852523E+001  3.989906E+001 -2.340205E-001 -1.690658E+001 -2.328677E-001 -1.687449E+001 -2.868169E+001  4.139890E+001
  70.0000     -2.842792E+001  3.983955E+001 -2.351715E-001 -1.714492E+001 -2.335508E-001 -1.711372E+001 -2.860857E+001  4.124692E+001
  71.0000     -2.836867E+001  3.954165E+001 -2.365486E-001 -1.738254E+001 -2.349064E-001 -1.735838E+001 -2.851426E+001  4.111647E+001
  72.0000     -2.828956E+001  3.939297E+001 -2.379609E-001 -1.762339E+001 -2.361231E-001 -1.759905E+001 -2.843691E+001  4.094605E+001
  73.0000     -2.820960E+001  3.918131E+001 -2.393863E-001 -1.786326E+001 -2.379699E-001 -1.784158E+001 -2.835808E+001  4.083881E+001
  74.0000     -2.814080E+001  3.903768E+001 -2.408617E-001 -1.810291E+001 -2.397282E-001 -1.808021E+001 -2.827788E+001  4.061792E+001
  75.0000     -2.803388E+001  3.895317E+001 -2.418051E-001 -1.836377E+001 -2.417187E-001 -1.830372E+001 -2.821713E+001  4.062682E+001
  76.0000     -2.797939E+001  3.877464E+001 -2.435543E-001 -1.858429E+001 -2.416764E-001 -1.856164E+001 -2.813174E+001  4.029890E+001
  77.0000     -2.790514E+001  3.861173E+001 -2.444973E-001 -1.882253E+001 -2.427165E-001 -1.880324E+001 -2.805207E+001  4.014952E+001
  78.0000     -2.782714E+001  3.844548E+001 -2.458490E-001 -1.906308E+001 -2.446579E-001 -1.904291E+001 -2.797385E+001  4.006531E+001
  79.0000     -2.774561E+001  3.833033E+001 -2.473237E-001 -1.930372E+001 -2.455701E-001 -1.928355E+001 -2.789757E+001  3.985522E+001
  80.0000     -2.767473E+001  3.815627E+001 -2.487904E-001 -1.954487E+001 -2.468315E-001 -1.952441E+001 -2.781099E+001  3.975370E+001
  81.0000     -2.758622E+001  3.806427E+001 -2.496750E-001 -1.978292E+001 -2.486215E-001 -1.976513E+001 -2.774588E+001  3.958365E+001
  82.0000     -2.751329E+001  3.790549E+001 -2.502221E-001 -2.002317E+001 -2.494784E-001 -2.000662E+001 -2.766680E+001  3.949350E+001
  83.0000     -2.743741E+001  3.773759E+001 -2.516765E-001 -2.026304E+001 -2.509862E-001 -2.024814E+001 -2.759458E+001  3.935547E+001
  84.0000     -2.734984E+001  3.760742E+001 -2.526023E-001 -2.050368E+001 -2.517975E-001 -2.049041E+001 -2.751846E+001  3.922964E+001
  85.0000     -2.727107E+001  3.754148E+001 -2.539322E-001 -2.074619E+001 -2.525840E-001 -2.073331E+001 -2.744629E+001  3.916643E+001
  86.0000     -2.719354E+001  3.736782E+001 -2.548993E-001 -2.098669E+001 -2.537643E-001 -2.097549E+001 -2.737542E+001  3.907062E+001
  87.0000     -2.712036E+001  3.729452E+001 -2.556500E-001 -2.122754E+001 -2.549155E-001 -2.121815E+001 -2.730521E+001  3.895205E+001
  88.0000     -2.704292E+001  3.713807E+001 -2.563787E-001 -2.146921E+001 -2.555580E-001 -2.145972E+001 -2.723687E+001  3.884633E+001
  89.0000     -2.696973E+001  3.697599E+001 -2.575445E-001 -2.171042E+001 -2.567380E-001 -2.169880E+001 -2.717620E+001  3.869918E+001
  90.0000     -2.689431E+001  3.697093E+001 -2.588937E-001 -2.195316E+001 -2.582995E-001 -2.193947E+001 -2.712025E+001  3.854763E+001
  91.0000     -2.683526E+001  3.666576E+001 -2.596240E-001 -2.219076E+001 -2.589493E-001 -2.218113E+001 -2.704678E+001  3.854757E+001
  92.0000     -2.676447E+001  3.648471E+001 -2.602077E-001 -2.243295E+001 -2.594472E-001 -2.242074E+001 -2.698952E+001  3.842767E+001
  93.0000     -2.670658E+001  3.625711E+001 -2.614119E-001 -2.267247E+001 -2.602985E-001 -2.266084E+001 -2.693020E+001  3.830647E+001
  94.0000     -2.664284E+001  3.604800E+001 -2.623655E-001 -2.291190E+001 -2.616977E-001 -2.290012E+001 -2.687933E+001  3.817485E+001
  95.0000     -2.658528E+001  3.585280E+001 -2.632378E-001 -2.315184E+001 -2.629638E-001 -2.314206E+001 -2.682761E+001  3.808910E+001
  96.0000     -2.653079E+001  3.565479E+001 -2.640005E-001 -2.339230E+001 -2.636450E-001 -2.337997E+001 -2.677504E+001  3.797883E+001
  97.0000     -2.647502E+001  3.544240E+001 -2.650897E-001 -2.363269E+001 -2.646874E-001 -2.362090E+001 -2.672692E+001  3.784434E+001
  98.0000     -2.641857E+001  3.525111E+001 -2.661902E-001 -2.387202E+001 -2.658317E-001 -2.386133E+001 -2.668085E+001  3.771779E+001
  99.0000     -2.636101E+001  3.502306E+001 -2.673174E-001 -2.411267E+001 -2.664684E-001 -2.410068E+001 -2.662960E+001  3.759438E+001
 100.0000     -2.631179E+001  3.472033E+001 -2.680435E-001 -2.435284E+001 -2.688378E-001 -2.434646E+001 -2.658436E+001  3.748961E+001
 101.0000     -2.625426E+001  3.456775E+001 -2.691685E-001 -2.459366E+001 -2.686545E-001 -2.458302E+001 -2.653574E+001  3.737123E+001
 102.0000     -2.620170E+001  3.438222E+001 -2.701516E-001 -2.483562E+001 -2.696847E-001 -2.482369E+001 -2.649273E+001  3.724414E+001
 103.0000     -2.614648E+001  3.414297E+001 -2.713721E-001 -2.507587E+001 -2.704110E-001 -2.506393E+001 -2.644467E+001  3.711328E+001
 104.0000     -2.609501E+001  3.390542E+001 -2.722364E-001 -2.531792E+001 -2.718400E-001 -2.530487E+001 -2.639452E+001  3.706474E+001
 105.0000     -2.604536E+001  3.368088E+001 -2.733846E-001 -2.555906E+001 -2.730134E-001 -2.554624E+001 -2.635241E+001  3.695502E+001
 106.0000     -2.600329E+001  3.341482E+001 -2.753986E-001 -2.579748E+001 -2.743267E-001 -2.578258E+001 -2.632101E+001  3.680679E+001
 107.0000     -2.595033E+001  3.319054E+001 -2.768186E-001 -2.603843E+001 -2.752286E-001 -2.602514E+001 -2.627397E+001  3.665213E+001
 108.0000     -2.590153E+001  3.294107E+001 -2.778079E-001 -2.627810E+001 -2.760801E-001 -2.626692E+001 -2.623252E+001  3.659483E+001
 109.0000     -2.585944E+001  3.277283E+001 -2.788959E-001 -2.652050E+001 -2.773439E-001 -2.650666E+001 -2.618075E+001  3.644964E+001
 110.0000     -2.580336E+001  3.259009E+001 -2.796896E-001 -2.675858E+001 -2.784437E-001 -2.674509E+001 -2.613669E+001  3.642831E+001
 111.0000     -2.576339E+001  3.235933E+001 -2.809193E-001 -2.700128E+001 -2.791744E-001 -2.699192E+001 -2.608798E+001  3.625685E+001
 112.0000     -2.571754E+001  3.222630E+001 -2.819615E-001 -2.724274E+001 -2.803829E-001 -2.723241E+001 -2.603777E+001  3.613920E+001
 113.0000     -2.566485E+001  3.197814E+001 -2.829031E-001 -2.748327E+001 -2.816065E-001 -2.747385E+001 -2.599775E+001  3.606451E+001
 114.0000     -2.562036E+001  3.176860E+001 -2.841154E-001 -2.772556E+001 -2.828363E-001 -2.771589E+001 -2.595141E+001  3.594032E+001
 115.0000     -2.558102E+001  3.155718E+001 -2.855600E-001 -2.796700E+001 -2.838100E-001 -2.795533E+001 -2.590313E+001  3.585109E+001
 116.0000     -2.552645E+001  3.134219E+001 -2.862564E-001 -2.820747E+001 -2.852107E-001 -2.819687E+001 -2.586447E+001  3.571402E+001
 117.0000     -2.547734E+001  3.116191E+001 -2.874812E-001 -2.845119E+001 -2.861566E-001 -2.843878E+001 -2.582020E+001  3.563439E+001
 118.0000     -2.543590E+001  3.099092E+001 -2.885619E-001 -2.869200E+001 -2.873136E-001 -2.867998E+001 -2.577246E+001  3.553411E+001
 119.0000     -2.538386E+001  3.080563E+001 -2.897729E-001 -2.893213E+001 -2.883726E-001 -2.892166E+001 -2.572826E+001  3.536051E+001
 120.0000     -2.534659E+001  3.062488E+001 -2.913052E-001 -2.917462E+001 -2.892280E-001 -2.916639E+001 -2.567247E+001  3.529869E+001
 121.0000     -2.528932E+001  3.049926E+001 -2.920952E-001 -2.941430E+001 -2.901624E-001 -2.940569E+001 -2.564462E+001  3.515556E+001
 122.0000     -2.523991E+001  3.030712E+001 -2.931482E-001 -2.965699E+001 -2.913013E-001 -2.964731E+001 -2.560769E+001  3.503017E+001
 123.0000     -2.519041E+001  3.007378E+001 -2.941813E-001 -2.989840E+001 -2.922505E-001 -2.989013E+001 -2.556009E+001  3.488721E+001
 124.0000     -2.514094E+001  2.989196E+001 -2.950836E-001 -3.014112E+001 -2.936314E-001 -3.012910E+001 -2.551144E+001  3.476253E+001
 125.0000     -2.509819E+001  2.954074E+001 -2.958504E-001 -3.039459E+001 -2.953151E-001 -3.036758E+001 -2.546243E+001  3.450886E+001
 126.0000     -2.504402E+001  2.951848E+001 -2.973766E-001 -3.062444E+001 -2.961961E-001 -3.061344E+001 -2.542382E+001  3.455645E+001
 127.0000     -2.499819E+001  2.930566E+001 -2.980143E-001 -3.086612E+001 -2.970499E-001 -3.085488E+001 -2.538569E+001  3.445873E+001
 128.0000     -2.495149E+001  2.910593E+001 -2.990294E-001 -3.110840E+001 -2.982554E-001 -3.109748E+001 -2.534179E+001  3.437463E+001
 129.0000     -2.490193E+001  2.893368E+001 -3.002624E-001 -3.135032E+001 -2.994903E-001 -3.133680E+001 -2.529508E+001  3.418913E+001
 130.0000     -2.485226E+001  2.868606E+001 -3.008887E-001 -3.159201E+001 -3.006397E-001 -3.158003E+001 -2.525610E+001  3.411383E+001
 131.0000     -2.480763E+001  2.852091E+001 -3.017588E-001 -3.183217E+001 -3.018494E-001 -3.182111E+001 -2.521372E+001  3.399771E+001
 132.0000     -2.475646E+001  2.831515E+001 -3.027696E-001 -3.207395E+001 -3.026720E-001 -3.206534E+001 -2.516449E+001  3.386856E+001
 133.0000     -2.470942E+001  2.814103E+001 -3.036610E-001 -3.231676E+001 -3.037592E-001 -3.230473E+001 -2.513018E+001  3.372451E+001
 134.0000     -2.466422E+001  2.792903E+001 -3.048201E-001 -3.255779E+001 -3.044086E-001 -3.254654E+001 -2.508795E+001  3.360480E+001
 135.0000     -2.461358E+001  2.774422E+001 -3.055590E-001 -3.279991E+001 -3.054359E-001 -3.278730E+001 -2.505264E+001  3.347004E+001
 136.0000     -2.456421E+001  2.755976E+001 -3.065972E-001 -3.304086E+001 -3.059866E-001 -3.302948E+001 -2.501381E+001  3.331883E+001
 137.0000     -2.451912E+001  2.730463E+001 -3.073169E-001 -3.328541E+001 -3.069898E-001 -3.327262E+001 -2.496651E+001  3.323227E+001
 138.0000     -2.447190E+001  2.709244E+001 -3.081240E-001 -3.352664E+001 -3.078342E-001 -3.351501E+001 -2.493018E+001  3.310763E+001
 139.0000     -2.442377E+001  2.688723E+001 -3.090560E-001 -3.376868E+001 -3.090268E-001 -3.375726E+001 -2.489342E+001  3.296184E+001
 140.0000     -2.438016E+001  2.668200E+001 -3.096870E-001 -3.401187E+001 -3.095292E-001 -3.399865E+001 -2.485772E+001  3.283810E+001
 141.0000     -2.433499E+001  2.648691E+001 -3.109579E-001 -3.425186E+001 -3.106970E-001 -3.424065E+001 -2.481846E+001  3.273718E+001
 142.0000     -2.428792E+001  2.625161E+001 -3.114590E-001 -3.449434E+001 -3.114334E-001 -3.448320E+001 -2.478116E+001  3.257386E+001
 143.0000     -2.424944E+001  2.597746E+001 -3.120693E-001 -3.473697E+001 -3.123627E-001 -3.472655E+001 -2.474096E+001  3.244109E+001
 144.0000     -2.420705E+001  2.581052E+001 -3.131232E-001 -3.497906E+001 -3.134791E-001 -3.496816E+001 -2.470304E+001  3.230089E+001
 145.0000     -2.415980E+001  2.558696E+001 -3.137406E-001 -3.522211E+001 -3.142611E-001 -3.520926E+001 -2.467130E+001  3.213904E+001
 146.0000     -2.412010E+001  2.534066E+001 -3.152240E-001 -3.546346E+001 -3.146826E-001 -3.545329E+001 -2.463302E+001  3.203712E+001
 147.0000     -2.409947E+001  2.507043E+001 -3.171198E-001 -3.570234E+001 -3.164495E-001 -3.569530E+001 -2.460569E+001  3.192508E+001
 148.0000     -2.406258E+001  2.482730E+001 -3.183250E-001 -3.594510E+001 -3.175468E-001 -3.593641E+001 -2.456422E+001  3.173320E+001
 149.0000     -2.402023E+001  2.456200E+001 -3.194604E-001 -3.618896E+001 -3.183024E-001 -3.617963E+001 -2.453080E+001  3.162450E+001
 150.0000     -2.397429E+001  2.422992E+001 -3.197067E-001 -3.644113E+001 -3.186401E-001 -3.640581E+001 -2.449922E+001  3.166126E+001
 151.0000     -2.394699E+001  2.410501E+001 -3.214151E-001 -3.667546E+001 -3.207370E-001 -3.666659E+001 -2.446056E+001  3.136203E+001
 152.0000     -2.390928E+001  2.387132E+001 -3.224670E-001 -3.691830E+001 -3.219301E-001 -3.690855E+001 -2.442810E+001  3.120432E+001
 153.0000     -2.387287E+001  2.363844E+001 -3.232214E-001 -3.716203E+001 -3.227459E-001 -3.715101E+001 -2.439153E+001  3.105210E+001
 154.0000     -2.383556E+001  2.342814E+001 -3.247454E-001 -3.740295E+001 -3.235038E-001 -3.739418E+001 -2.436742E+001  3.091366E+001
