! Mini-Circuits
! S2P DATA File Format
! Unit Family Type: Filters
! MCL Part No: HFCN-440+
! Note: All S Parameters are in dB deg format
! The Unit was tested at -55 °C
!
# MHz S DB R 50
!    FREQ       dB(S11)   PHS(S11)  dB(S21)   PHS(S21)  dB(S12)   PHS(S12)  dB(S22)   PHS(S22) 
   20.000000     0.001    -8.568   -94.632    92.847   -96.536    69.375     0.000    -8.705 
   24.000000     0.000   -10.275   -89.159    77.790   -89.393    84.447    -0.001   -10.436 
   28.000000    -0.001   -11.970   -91.074    82.007   -92.337    78.345     0.000   -12.163 
   32.000000     0.000   -13.669   -88.210    71.828   -87.914    75.351    -0.001   -13.886 
   36.000000    -0.001   -15.366   -89.818    74.252   -87.802    87.873    -0.001   -15.605 
   40.000000    -0.001   -17.057   -88.210    76.861   -88.645    76.976    -0.001   -17.317 
   44.000000    -0.001   -18.744   -86.874    74.341   -87.304    71.707    -0.001   -19.019 
   48.000000    -0.002   -20.428   -89.223    68.584   -87.208    75.942    -0.002   -20.718 
   52.000000    -0.002   -22.109   -86.973    69.819   -87.906    75.919    -0.002   -22.416 
   56.000000    -0.003   -23.794   -86.872    74.689   -87.206    58.891    -0.003   -24.112 
   60.000000    -0.004   -25.476   -87.371    69.728   -86.879    63.370    -0.003   -25.802 
   64.000000    -0.005   -27.162   -86.274    73.636   -89.465    67.500    -0.005   -27.493 
   68.000000    -0.005   -28.837   -86.148    72.413   -86.297    60.343    -0.006   -29.167 
   72.000000    -0.007   -30.522   -86.707    60.078   -85.513    62.337    -0.007   -30.845 
   76.000000    -0.009   -32.196   -85.333    62.464   -86.813    61.573    -0.009   -32.524 
   80.000000    -0.011   -33.881   -86.696    62.502   -86.905    61.411    -0.011   -34.200 
   84.000000    -0.011   -35.558   -85.512    61.131   -87.022    50.516    -0.013   -35.878 
   88.000000    -0.014   -37.241   -85.060    55.354   -84.803    54.456    -0.014   -37.552 
   92.000000    -0.015   -38.924   -84.489    55.948   -84.643    47.429    -0.015   -39.238 
   96.000000    -0.016   -40.610   -85.044    54.029   -84.603    49.204    -0.016   -40.905 
  100.000000    -0.017   -42.298   -83.387    47.613   -84.292    45.950    -0.017   -42.576 
  104.000000    -0.018   -43.980   -83.080    38.785   -82.348    41.397    -0.019   -44.258 
  108.000000    -0.019   -45.661   -81.010    40.712   -81.214    41.031    -0.019   -45.932 
  112.000000    -0.020   -47.335   -79.592    36.533   -79.940    37.274    -0.021   -47.604 
  116.000000    -0.022   -49.010   -78.278    33.622   -78.601    35.559    -0.023   -49.281 
  120.000000    -0.024   -50.693   -76.962    33.435   -76.401    30.764    -0.024   -50.956 
  124.000000    -0.028   -52.368   -75.576    30.955   -75.672    31.772    -0.027   -52.642 
  128.000000    -0.031   -54.052   -74.066    29.244   -74.103    27.459    -0.031   -54.334 
  132.000000    -0.033   -55.734   -72.508    27.319   -72.533    24.588    -0.035   -56.032 
  136.000000    -0.037   -57.421   -71.344    20.942   -71.312    19.501    -0.039   -57.734 
  140.000000    -0.040   -59.106   -70.560    21.850   -70.566    21.605    -0.042   -59.441 
  144.000000    -0.043   -60.797   -68.984    20.131   -68.970    20.737    -0.046   -61.155 
  148.000000    -0.047   -62.499   -67.398    18.985   -67.622    19.980    -0.050   -62.880 
  152.000000    -0.050   -64.200   -66.102    17.411   -66.171    17.664    -0.053   -64.617 
  156.000000    -0.055   -65.913   -64.953    16.122   -64.878    16.925    -0.058   -66.366 
  160.000000    -0.058   -67.636   -63.790    14.362   -63.734    14.328    -0.064   -68.123 
  164.000000    -0.063   -69.369   -62.538    13.384   -62.530    12.774    -0.069   -69.895 
  168.000000    -0.067   -71.108   -61.362    11.095   -61.370    10.935    -0.075   -71.684 
  172.000000    -0.074   -72.867   -60.190     9.333   -60.197     9.328    -0.082   -73.479 
  176.000000    -0.080   -74.635   -59.159     7.532   -59.103     7.348    -0.090   -75.301 
  180.000000    -0.087   -76.419   -58.128     5.747   -58.101     6.033    -0.097   -77.140 
  184.000000    -0.094   -78.222   -57.074     4.000   -57.097     4.210    -0.104   -78.989 
  188.000000    -0.100   -80.041   -56.089     2.411   -56.101     2.460    -0.110   -80.851 
  192.000000    -0.106   -81.872   -55.155     0.860   -55.164     0.754    -0.115   -82.738 
  196.000000    -0.112   -83.719   -54.239    -1.082   -54.229    -1.161    -0.122   -84.640 
  200.000000    -0.118   -85.587   -53.360    -2.962   -53.330    -2.629    -0.129   -86.543 
  204.000000    -0.124   -87.466   -52.464    -4.643   -52.480    -4.561    -0.134   -88.463 
  208.000000    -0.130   -89.361   -51.639    -6.329   -51.642    -6.237    -0.140   -90.400 
  212.000000    -0.138   -91.263   -50.842    -8.335   -50.850    -8.147    -0.145   -92.364 
  216.000000    -0.145   -93.178   -50.042    -9.999   -50.087    -9.926    -0.153   -94.328 
  220.000000    -0.153   -95.112   -49.330   -11.851   -49.336   -11.724    -0.161   -96.306 
  224.000000    -0.162   -97.056   -48.609   -13.608   -48.599   -13.547    -0.170   -98.298 
  230.000000    -0.176  -100.016   -47.617   -16.450   -47.617   -16.366    -0.182  -101.321 
  232.000000    -0.182  -101.008   -47.286   -17.347   -47.266   -17.197    -0.188  -102.332 
  236.000000    -0.192  -103.006   -46.648   -19.158   -46.648   -19.011    -0.197  -104.378 
  240.000000    -0.201  -105.022   -46.070   -20.873   -46.054   -20.866    -0.206  -106.440 
  244.000000    -0.212  -107.059   -45.504   -22.813   -45.501   -22.619    -0.216  -108.517 
  248.000000    -0.223  -109.119   -44.974   -24.573   -44.969   -24.485    -0.225  -110.608 
  252.000000    -0.234  -111.203   -44.483   -26.435   -44.479   -26.240    -0.235  -112.719 
  256.000000    -0.247  -113.305   -44.028   -28.207   -44.006   -28.145    -0.246  -114.849 
  260.000000    -0.259  -115.436   -43.607   -29.998   -43.596   -29.941    -0.259  -117.002 
  264.000000    -0.274  -117.595   -43.231   -31.821   -43.226   -31.649    -0.273  -119.178 
  268.000000    -0.289  -119.779   -42.915   -33.463   -42.916   -33.348    -0.286  -121.375 
  272.000000    -0.305  -121.997   -42.641   -35.075   -42.636   -35.031    -0.301  -123.600 
  276.000000    -0.322  -124.248   -42.429   -36.730   -42.426   -36.632    -0.316  -125.850 
  280.000000    -0.337  -126.541   -42.287   -38.256   -42.278   -38.158    -0.331  -128.127 
  284.000000    -0.356  -128.879   -42.214   -39.595   -42.212   -39.531    -0.347  -130.431 
  288.000000    -0.374  -131.251   -42.250   -40.774   -42.240   -40.696    -0.362  -132.781 
  292.000000    -0.393  -133.663   -42.387   -41.717   -42.371   -41.615    -0.378  -135.154 
  296.000000    -0.412  -136.121   -42.664   -42.297   -42.650   -42.183    -0.395  -137.543 
  300.000000    -0.431  -138.620   -43.115   -42.190   -43.101   -42.121    -0.412  -139.980 
  304.000000    -0.453  -141.161   -43.789   -41.049   -43.782   -40.955    -0.430  -142.444 
  308.000000    -0.475  -143.755   -44.729   -38.188   -44.715   -38.069    -0.451  -144.945 
  312.000000    -0.501  -146.398   -46.026   -32.265   -46.021   -32.265    -0.470  -147.497 
  316.000000    -0.526  -149.100   -47.594   -19.902   -47.585   -19.830    -0.492  -150.081 
  320.000000    -0.554  -151.865   -48.624     2.930   -48.587     3.020    -0.516  -152.712 
  324.000000    -0.584  -154.687   -47.468    31.426   -47.450    31.464    -0.540  -155.387 
  328.000000    -0.615  -157.576   -44.485    51.582   -44.475    51.590    -0.565  -158.122 
  332.000000    -0.650  -160.546   -41.251    62.172   -41.235    62.251    -0.594  -160.914 
  336.000000    -0.687  -163.600   -38.280    67.281   -38.267    67.328    -0.625  -163.775 
  340.000000    -0.729  -166.745   -35.615    69.372   -35.598    69.404    -0.656  -166.697 
  344.000000    -0.773  -169.989   -33.210    69.669   -33.190    69.696    -0.694  -169.715 
  350.000000    -0.851  -175.090   -29.959    68.142   -29.942    68.162    -0.754  -174.371 
  352.000000    -0.879  -176.849   -28.952    67.280   -28.934    67.295    -0.777  -175.988 
  356.000000    -0.943   179.517   -27.026    65.124   -27.008    65.136    -0.826  -179.273 
  360.000000    -1.014   175.714   -25.201    62.505   -25.182    62.523    -0.882   177.313 
  364.000000    -1.095   171.736   -23.457    59.500   -23.439    59.495    -0.946   173.755 
  368.000000    -1.190   167.539   -21.781    56.123   -21.761    56.112    -1.020   170.062 
  372.000000    -1.301   163.117   -20.164    52.395   -20.144    52.385    -1.106   166.194 
  376.000000    -1.431   158.426   -18.598    48.331   -18.579    48.303    -1.208   162.156 
  380.000000    -1.586   153.456   -17.079    43.905   -17.060    43.874    -1.328   157.899 
  384.000000    -1.772   148.139   -15.601    39.119   -15.585    39.072    -1.476   153.459 
  388.000000    -1.999   142.463   -14.171    33.917   -14.154    33.863    -1.653   148.739 
  392.000000    -2.277   136.380   -12.787    28.316   -12.771    28.257    -1.873   143.803 
  396.000000    -2.619   129.853   -11.456    22.291   -11.441    22.228    -2.144   138.618 
  400.000000    -3.041   122.859   -10.181    15.817   -10.169    15.750    -2.477   133.197 
  404.000000    -3.565   115.372    -8.976     8.913    -8.965     8.847    -2.889   127.579 
  408.000000    -4.211   107.383    -7.850     1.586    -7.842     1.518    -3.396   121.834 
  412.000000    -5.011    98.900    -6.817    -6.114    -6.809    -6.177    -4.014   116.072 
  416.000000    -5.991    89.944    -5.885   -14.107    -5.880   -14.164    -4.758   110.432 
  420.000000    -7.188    80.523    -5.065   -22.292    -5.061   -22.344    -5.635   105.134 
  424.000000    -8.632    70.649    -4.359   -30.560    -4.356   -30.602    -6.653   100.421 
  428.000000   -10.378    60.195    -3.766   -38.764    -3.763   -38.797    -7.791    96.608 
  432.000000   -12.479    48.855    -3.281   -46.806    -3.277   -46.832    -9.035    93.966 
  436.000000   -15.022    35.931    -2.890   -54.579    -2.885   -54.598   -10.336    92.785 
  440.000000   -18.101    19.478    -2.580   -62.018    -2.574   -62.028   -11.611    93.370 
  444.000000   -21.654    -4.930    -2.336   -69.087    -2.330   -69.094   -12.783    95.594 
  448.000000   -24.401   -44.039    -2.146   -75.769    -2.138   -75.779   -13.747    99.192 
  452.000000   -23.804   -86.433    -1.996   -82.074    -1.988   -82.080   -14.422   103.600 
  456.000000   -21.565  -113.478    -1.876   -88.017    -1.867   -88.025   -14.822   107.879 
  460.000000   -19.613  -129.693    -1.779   -93.628    -1.770   -93.638   -14.989   111.329 
  464.000000   -18.174  -140.745    -1.699   -98.933    -1.689   -98.949   -15.017   113.814 
  468.000000   -17.126  -149.250    -1.631  -103.964    -1.621  -103.984   -14.974   115.215 
  472.000000   -16.373  -156.151    -1.571  -108.745    -1.560  -108.766   -14.924   115.592 
  476.000000   -15.842  -162.087    -1.517  -113.305    -1.507  -113.334   -14.889   115.228 
  480.000000   -15.475  -167.289    -1.468  -117.669    -1.457  -117.700   -14.885   114.203 
  484.000000   -15.254  -171.968    -1.421  -121.851    -1.411  -121.889   -14.936   112.733 
  488.000000   -15.127  -176.115    -1.377  -125.878    -1.367  -125.915   -15.028   110.854 
  492.000000   -15.096  -179.977    -1.335  -129.761    -1.326  -129.800   -15.167   108.707 
  496.000000   -15.133   176.475    -1.294  -133.508    -1.285  -133.551   -15.356   106.271 
  500.000000   -15.240   173.212    -1.255  -137.139    -1.246  -137.180   -15.588   103.691 
  504.000000   -15.401   170.194    -1.217  -140.660    -1.208  -140.701   -15.864   100.923 
  508.000000   -15.606   167.435    -1.180  -144.076    -1.172  -144.124   -16.180    98.003 
  512.000000   -15.858   164.884    -1.144  -147.402    -1.136  -147.449   -16.535    95.001 
  516.000000   -16.147   162.580    -1.109  -150.642    -1.102  -150.686   -16.930    91.832 
  520.000000   -16.473   160.469    -1.076  -153.800    -1.069  -153.844   -17.360    88.573 
  524.000000   -16.832   158.610    -1.044  -156.876    -1.038  -156.920   -17.828    85.180 
  528.000000   -17.222   156.984    -1.014  -159.883    -1.008  -159.928   -18.336    81.638 
  532.000000   -17.642   155.583    -0.985  -162.819    -0.978  -162.863   -18.884    77.944 
  536.000000   -18.085   154.471    -0.956  -165.690    -0.951  -165.733   -19.469    74.147 
  540.000000   -18.559   153.653    -0.929  -168.500    -0.925  -168.539   -20.106    70.053 
  544.000000   -19.057   153.132    -0.904  -171.248    -0.900  -171.284   -20.785    65.794 
  548.000000   -19.569   152.984    -0.880  -173.934    -0.876  -173.974   -21.509    61.154 
  552.000000   -20.109   153.237    -0.857  -176.570    -0.853  -176.607   -22.288    56.176 
  556.000000   -20.651   153.927    -0.836  -179.148    -0.832  -179.184   -23.127    50.660 
  560.000000   -21.205   155.130    -0.815   178.320    -0.812   178.283   -24.006    44.521 
  564.000000   -21.742   156.806    -0.796   175.839    -0.793   175.805   -24.932    37.572 
  568.000000   -22.262   159.096    -0.778   173.406    -0.776   173.374   -25.881    29.524 
  572.000000   -22.743   161.903    -0.761   171.019    -0.759   170.990   -26.803    20.284 
  576.000000   -23.161   165.330    -0.746   168.677    -0.743   168.649   -27.657     9.419 
  580.000000   -23.501   169.173    -0.731   166.379    -0.729   166.352   -28.332    -2.794 
  584.000000   -23.743   173.391    -0.717   164.120    -0.715   164.096   -28.714   -16.092 
  588.000000   -23.873   177.775    -0.704   161.903    -0.702   161.882   -28.750   -29.732 
  592.000000   -23.894  -177.910    -0.692   159.728    -0.691   159.706   -28.447   -42.597 
  596.000000   -23.811  -173.720    -0.682   157.586    -0.680   157.571   -27.886   -54.179 
  600.000000   -23.637  -169.926    -0.671   155.486    -0.669   155.469   -27.194   -64.166 
  604.000000   -23.386  -166.580    -0.661   153.419    -0.660   153.404   -26.461   -72.597 
  608.000000   -23.103  -163.693    -0.653   151.389    -0.651   151.376   -25.699   -79.684 
  612.000000   -22.775  -161.262    -0.644   149.394    -0.642   149.383   -24.990   -85.716 
  616.000000   -22.435  -159.343    -0.637   147.431    -0.635   147.420   -24.318   -90.948 
  620.000000   -22.089  -157.857    -0.629   145.501    -0.628   145.492   -23.696   -95.473 
  624.000000   -21.757  -156.713    -0.623   143.603    -0.621   143.593   -23.140   -99.530 
  628.000000   -21.432  -155.936    -0.616   141.733    -0.614   141.725   -22.626  -103.145 
  632.000000   -21.123  -155.443    -0.610   139.895    -0.608   139.887   -22.157  -106.468 
  636.000000   -20.828  -155.115    -0.604   138.085    -0.602   138.078   -21.727  -109.497 
  640.000000   -20.550  -155.056    -0.599   136.305    -0.597   136.295   -21.344  -112.367 
  644.000000   -20.284  -155.081    -0.594   134.544    -0.591   134.543   -21.000  -115.029 
  648.000000   -20.038  -155.365    -0.589   132.816    -0.586   132.811   -20.672  -117.551 
  652.000000   -19.808  -155.636    -0.584   131.107    -0.581   131.107   -20.381  -120.025 
  656.000000   -19.591  -156.040    -0.579   129.429    -0.576   129.426   -20.115  -122.408 
  660.000000   -19.390  -156.537    -0.574   127.771    -0.571   127.772   -19.870  -124.624 
  664.000000   -19.201  -157.108    -0.570   126.137    -0.567   126.136   -19.639  -126.870 
  668.000000   -19.019  -157.710    -0.565   124.522    -0.563   124.523   -19.424  -128.974 
  672.000000   -18.850  -158.342    -0.561   122.932    -0.559   122.933   -19.226  -131.102 
  676.000000   -18.694  -159.014    -0.557   121.362    -0.555   121.366   -19.049  -133.099 
  680.000000   -18.545  -159.688    -0.554   119.812    -0.551   119.819   -18.881  -135.085 
  684.000000   -18.414  -160.433    -0.550   118.284    -0.547   118.289   -18.728  -137.036 
  688.000000   -18.280  -161.180    -0.547   116.775    -0.544   116.782   -18.582  -138.938 
  692.000000   -18.166  -161.951    -0.543   115.285    -0.540   115.292   -18.447  -140.774 
  696.000000   -18.062  -162.700    -0.540   113.815    -0.537   113.823   -18.329  -142.532 
  700.000000   -17.967  -163.487    -0.537   112.363    -0.533   112.373   -18.220  -144.285 
  704.000000   -17.884  -164.372    -0.534   110.928    -0.530   110.938   -18.126  -145.992 
  708.000000   -17.809  -165.197    -0.530   109.510    -0.527   109.523   -18.046  -147.628 
  712.000000   -17.750  -166.087    -0.528   108.114    -0.523   108.123   -17.962  -149.220 
  716.000000   -17.701  -167.008    -0.525   106.733    -0.520   106.741   -17.905  -150.768 
  720.000000   -17.662  -167.921    -0.520   105.365    -0.516   105.371   -17.849  -152.255 
  724.000000   -17.636  -168.840    -0.517   104.012    -0.513   104.022   -17.814  -153.656 
  728.000000   -17.627  -169.798    -0.513   102.678    -0.509   102.683   -17.786  -155.083 
  732.000000   -17.616  -170.721    -0.510   101.357    -0.505   101.360   -17.762  -156.428 
  736.000000   -17.622  -171.720    -0.506   100.050    -0.501   100.052   -17.763  -157.783 
  740.000000   -17.638  -172.679    -0.502    98.756    -0.496    98.755   -17.766  -159.107 
  744.000000   -17.664  -173.581    -0.497    97.472    -0.493    97.472   -17.782  -160.378 
  748.000000   -17.704  -174.528    -0.492    96.201    -0.488    96.202   -17.805  -161.653 
  752.000000   -17.739  -175.496    -0.488    94.941    -0.483    94.942   -17.836  -162.905 
  756.000000   -17.790  -176.375    -0.483    93.694    -0.479    93.694   -17.877  -164.178 
  760.000000   -17.837  -177.277    -0.478    92.457    -0.474    92.457   -17.920  -165.422 
  764.000000   -17.890  -178.198    -0.474    91.232    -0.469    91.232   -17.968  -166.664 
  768.000000   -17.955  -179.051    -0.469    90.017    -0.465    90.016   -18.025  -167.935 
  772.000000   -18.007  -179.916    -0.465    88.813    -0.461    88.811   -18.088  -169.205 
  776.000000   -18.073   179.291    -0.461    87.619    -0.457    87.618   -18.155  -170.476 
  780.000000   -18.137   178.409    -0.457    86.434    -0.453    86.438   -18.211  -171.788 
  784.000000   -18.203   177.563    -0.453    85.264    -0.449    85.264   -18.276  -173.006 
  788.000000   -18.279   176.809    -0.449    84.104    -0.445    84.105   -18.355  -174.232 
  792.000000   -18.346   175.978    -0.446    82.952    -0.441    82.957   -18.426  -175.458 
  796.000000   -18.412   175.206    -0.442    81.812    -0.438    81.818   -18.501  -176.652 
  800.000000   -18.492   174.377    -0.439    80.680    -0.434    80.685   -18.570  -177.770 
  804.000000   -18.571   173.555    -0.435    79.559    -0.431    79.565   -18.650  -178.997 
  808.000000   -18.666   172.740    -0.432    78.449    -0.427    78.452   -18.733   179.879 
  812.000000   -18.742   171.898    -0.428    77.344    -0.424    77.347   -18.813   178.755 
  816.000000   -18.823   170.983    -0.427    76.243    -0.422    76.241   -18.900   177.570 
  820.000000   -18.977   169.708    -0.428    75.216    -0.423    75.217   -19.084   176.601 
  824.000000   -19.101   169.225    -0.417    74.134    -0.412    74.134   -19.138   175.952 
  828.000000   -19.219   168.316    -0.413    73.060    -0.408    73.057   -19.230   175.028 
  832.000000   -19.350   167.391    -0.409    72.002    -0.404    71.997   -19.341   174.139 
  836.000000   -19.484   166.456    -0.405    70.951    -0.400    70.949   -19.462   173.376 
  840.000000   -19.648   165.507    -0.400    69.910    -0.396    69.905   -19.592   172.633 
  844.000000   -19.805   164.625    -0.396    68.876    -0.392    68.869   -19.734   171.954 
  848.000000   -19.984   163.661    -0.392    67.847    -0.388    67.840   -19.886   171.275 
  852.000000   -20.156   162.728    -0.387    66.827    -0.383    66.817   -20.041   170.620 
