! Mini-Circuits
! S2P DATA File Format
! Unit Family Type: Filters
! MCL Part No: HFCN-440+
! Note: All S Parameters are in dB deg format
! The Unit was tested at +25 °C
!
# MHz S DB R 50
!    FREQ       dB(S11)   PHS(S11)  dB(S21)   PHS(S21)  dB(S12)   PHS(S12)  dB(S22)   PHS(S22) 
   20.000000     0.000    -8.399   -92.755    86.065   -93.847    82.678    -0.001    -8.465 
   24.000000    -0.001   -10.082   -92.008    92.463   -92.662    76.930    -0.001   -10.160 
   28.000000    -0.002   -11.760   -88.738    80.603   -90.827    88.702    -0.002   -11.853 
   32.000000    -0.003   -13.442   -89.125    85.262   -90.179    72.973    -0.002   -13.548 
   36.000000    -0.004   -15.126   -90.209    77.108   -89.361    68.286    -0.004   -15.247 
   40.000000    -0.004   -16.811   -87.087    72.159   -87.952    69.678    -0.004   -16.945 
   44.000000    -0.006   -18.497   -88.501    74.861   -87.331    68.048    -0.005   -18.640 
   48.000000    -0.007   -20.181   -87.187    74.281   -86.823    66.290    -0.007   -20.339 
   52.000000    -0.008   -21.868   -87.052    66.950   -86.062    69.684    -0.008   -22.040 
   56.000000    -0.009   -23.560   -86.345    64.624   -86.543    64.455    -0.009   -23.750 
   60.000000    -0.011   -25.251   -87.762    68.845   -87.457    70.935    -0.010   -25.457 
   64.000000    -0.012   -26.952   -86.702    60.377   -85.773    72.531    -0.013   -27.170 
   68.000000    -0.014   -28.642   -86.702    69.912   -86.612    68.288    -0.014   -28.876 
   72.000000    -0.016   -30.342   -86.925    65.496   -87.190    71.474    -0.016   -30.590 
   76.000000    -0.018   -32.036   -86.577    70.376   -86.356    53.395    -0.019   -32.305 
   80.000000    -0.021   -33.741   -85.783    58.010   -86.170    59.527    -0.022   -34.021 
   84.000000    -0.022   -35.443   -86.251    61.132   -86.471    54.433    -0.024   -35.743 
   88.000000    -0.025   -37.147   -85.628    51.555   -85.093    52.857    -0.026   -37.464 
   92.000000    -0.027   -38.855   -85.530    49.607   -83.972    45.721    -0.028   -39.199 
   96.000000    -0.029   -40.566   -84.647    46.891   -84.178    43.520    -0.030   -40.928 
  100.000000    -0.031   -42.285   -82.906    42.865   -82.938    43.359    -0.032   -42.657 
  104.000000    -0.033   -43.996   -82.592    43.385   -81.705    42.252    -0.034   -44.390 
  108.000000    -0.035   -45.708   -80.910    37.147   -81.932    37.040    -0.036   -46.127 
  112.000000    -0.037   -47.421   -79.782    35.168   -78.926    34.197    -0.038   -47.857 
  116.000000    -0.040   -49.140   -78.468    28.791   -77.969    33.830    -0.040   -49.594 
  120.000000    -0.043   -50.867   -76.683    31.742   -76.686    27.801    -0.044   -51.329 
  124.000000    -0.048   -52.592   -75.219    28.297   -75.594    29.866    -0.048   -53.076 
  128.000000    -0.052   -54.323   -73.939    25.964   -73.848    26.130    -0.053   -54.826 
  132.000000    -0.056   -56.061   -72.588    24.873   -72.358    25.116    -0.058   -56.582 
  136.000000    -0.061   -57.806   -71.102    22.832   -71.040    21.716    -0.063   -58.342 
  140.000000    -0.066   -59.549   -69.752    20.145   -69.515    21.302    -0.067   -60.105 
  144.000000    -0.069   -61.300   -68.274    18.497   -68.152    16.489    -0.072   -61.870 
  148.000000    -0.075   -63.060   -66.901    16.241   -67.032    16.537    -0.077   -63.644 
  152.000000    -0.079   -64.823   -65.807    14.986   -65.864    15.394    -0.082   -65.425 
  156.000000    -0.085   -66.591   -64.564    12.715   -64.572    12.791    -0.088   -67.216 
  160.000000    -0.091   -68.372   -63.326    11.303   -63.418    12.026    -0.095   -69.009 
  164.000000    -0.096   -70.156   -62.150     9.437   -62.091    10.681    -0.101   -70.812 
  168.000000    -0.102   -71.942   -60.968     8.719   -60.967     8.298    -0.107   -72.624 
  172.000000    -0.109   -73.740   -59.841     6.570   -59.894     6.935    -0.116   -74.439 
  176.000000    -0.117   -75.549   -58.809     5.219   -58.811     5.195    -0.124   -76.265 
  180.000000    -0.124   -77.364   -57.782     3.476   -57.801     3.677    -0.131   -78.106 
  184.000000    -0.133   -79.191   -56.776     1.748   -56.783     1.765    -0.139   -79.951 
  188.000000    -0.140   -81.026   -55.819    -0.223   -55.790     0.252    -0.147   -81.812 
  192.000000    -0.148   -82.871   -54.884    -1.884   -54.870    -1.537    -0.152   -83.675 
  196.000000    -0.155   -84.724   -53.959    -3.315   -53.991    -3.314    -0.160   -85.547 
  200.000000    -0.162   -86.588   -53.086    -4.998   -53.109    -4.984    -0.168   -87.429 
  204.000000    -0.169   -88.463   -52.251    -6.782   -52.257    -6.727    -0.174   -89.314 
  208.000000    -0.177   -90.345   -51.454    -8.587   -51.420    -8.523    -0.181   -91.208 
  212.000000    -0.185   -92.237   -50.652   -10.254   -50.641   -10.211    -0.189   -93.121 
  216.000000    -0.194   -94.137   -49.900   -11.968   -49.902   -11.946    -0.198   -95.032 
  220.000000    -0.204   -96.051   -49.180   -13.688   -49.187   -13.701    -0.207   -96.960 
  224.000000    -0.214   -97.973   -48.467   -15.423   -48.468   -15.431    -0.217   -98.896 
  230.000000    -0.231  -100.897   -47.487   -18.130   -47.483   -17.912    -0.233  -101.828 
  232.000000    -0.237  -101.880   -47.168   -19.055   -47.168   -18.820    -0.239  -102.808 
  236.000000    -0.249  -103.851   -46.573   -20.692   -46.551   -20.587    -0.250  -104.792 
  240.000000    -0.260  -105.843   -45.986   -22.394   -45.972   -22.310    -0.262  -106.790 
  244.000000    -0.273  -107.853   -45.445   -24.184   -45.428   -24.103    -0.273  -108.803 
  248.000000    -0.286  -109.890   -44.942   -25.841   -44.925   -25.787    -0.285  -110.834 
  252.000000    -0.299  -111.944   -44.458   -27.532   -44.462   -27.496    -0.296  -112.882 
  256.000000    -0.314  -114.012   -44.030   -29.304   -44.033   -29.204    -0.310  -114.956 
  260.000000    -0.329  -116.109   -43.632   -30.934   -43.622   -30.828    -0.327  -117.040 
  264.000000    -0.346  -118.239   -43.280   -32.544   -43.291   -32.458    -0.342  -119.157 
  268.000000    -0.364  -120.380   -42.995   -34.050   -42.999   -34.037    -0.358  -121.295 
  272.000000    -0.382  -122.555   -42.760   -35.545   -42.754   -35.409    -0.376  -123.455 
  276.000000    -0.402  -124.763   -42.585   -36.917   -42.581   -36.809    -0.394  -125.645 
  280.000000    -0.421  -127.005   -42.492   -38.144   -42.491   -37.997    -0.412  -127.864 
  284.000000    -0.442  -129.283   -42.481   -39.130   -42.467   -39.048    -0.431  -130.114 
  288.000000    -0.463  -131.603   -42.561   -39.807   -42.539   -39.770    -0.449  -132.398 
  292.000000    -0.486  -133.957   -42.759   -40.132   -42.747   -40.054    -0.468  -134.713 
  296.000000    -0.508  -136.352   -43.109   -39.804   -43.092   -39.710    -0.488  -137.054 
  300.000000    -0.532  -138.790   -43.633   -38.486   -43.611   -38.375    -0.509  -139.435 
  304.000000    -0.558  -141.271   -44.356   -35.690   -44.357   -35.635    -0.530  -141.855 
  308.000000    -0.585  -143.805   -45.333   -30.273   -45.320   -30.199    -0.554  -144.313 
  312.000000    -0.615  -146.396   -46.455   -20.346   -46.431   -20.299    -0.579  -146.822 
  316.000000    -0.646  -149.048   -47.332    -3.430   -47.319    -3.399    -0.605  -149.375 
  320.000000    -0.680  -151.771   -46.957    19.710   -46.947    19.726    -0.634  -151.981 
  324.000000    -0.717  -154.558   -44.911    40.879   -44.905    40.841    -0.664  -154.637 
  328.000000    -0.756  -157.423   -42.063    54.270   -42.054    54.400    -0.696  -157.357 
  332.000000    -0.800  -160.376   -39.207    61.670   -39.194    61.740    -0.732  -160.144 
  336.000000    -0.847  -163.431   -36.555    65.277   -36.537    65.313    -0.771  -163.012 
  340.000000    -0.899  -166.582   -34.127    66.674   -34.109    66.721    -0.812  -165.949 
  344.000000    -0.956  -169.854   -31.890    66.618   -31.875    66.641    -0.858  -168.984 
  350.000000    -1.054  -175.015   -28.821    64.851   -28.805    64.890    -0.935  -173.702 
  352.000000    -1.091  -176.798   -27.857    63.924   -27.842    63.944    -0.965  -175.335 
  356.000000    -1.172   179.498   -26.008    61.665   -25.992    61.682    -1.028  -178.678 
  360.000000    -1.264   175.617   -24.245    58.947   -24.225    58.953    -1.100   177.848 
  364.000000    -1.368   171.537   -22.551    55.827   -22.534    55.827    -1.181   174.224 
  368.000000    -1.490   167.231   -20.918    52.328   -20.901    52.319    -1.276   170.452 
  372.000000    -1.633   162.685   -19.341    48.462   -19.324    48.451    -1.385   166.509 
  376.000000    -1.800   157.850   -17.812    44.231   -17.795    44.216    -1.515   162.378 
  380.000000    -2.000   152.721   -16.329    39.617   -16.313    39.589    -1.668   158.041 
  384.000000    -2.241   147.232   -14.891    34.625   -14.876    34.585    -1.854   153.505 
  388.000000    -2.533   141.380   -13.502    29.215   -13.487    29.169    -2.078   148.728 
  392.000000    -2.888   135.112   -12.162    23.388   -12.149    23.337    -2.353   143.734 
  396.000000    -3.324   128.414   -10.883    17.132   -10.871    17.077    -2.688   138.531 
  400.000000    -3.859   121.256    -9.668    10.440    -9.659    10.385    -3.097   133.148 
  404.000000    -4.517   113.645    -8.531     3.342    -8.522     3.290    -3.595   127.650 
  408.000000    -5.323   105.586    -7.482    -4.126    -7.475    -4.178    -4.198   122.140 
  412.000000    -6.309    97.099    -6.531   -11.896    -6.525   -11.945    -4.918   116.752 
  416.000000    -7.508    88.222    -5.687   -19.873    -5.683   -19.911    -5.765   111.675 
  420.000000    -8.961    78.958    -4.954   -27.942    -4.951   -27.980    -6.737   107.123 
  424.000000   -10.715    69.231    -4.331   -35.993    -4.328   -36.020    -7.829   103.383 
  428.000000   -12.845    58.851    -3.812   -43.903    -3.809   -43.924    -9.011   100.719 
  432.000000   -15.461    47.191    -3.387   -51.576    -3.384   -51.590   -10.248    99.371 
  436.000000   -18.753    32.626    -3.045   -58.951    -3.041   -58.961   -11.473    99.506 
  440.000000   -22.900    10.268    -2.770   -65.983    -2.765   -65.986   -12.603   101.167 
  444.000000   -26.838   -32.365    -2.550   -72.651    -2.545   -72.652   -13.567   104.058 
  448.000000   -25.977   -84.824    -2.375   -78.957    -2.368   -78.961   -14.294   107.674 
  452.000000   -22.892  -113.368    -2.232   -84.918    -2.225   -84.918   -14.772   111.355 
  456.000000   -20.520  -128.745    -2.114   -90.554    -2.106   -90.558   -15.043   114.507 
  460.000000   -18.873  -138.946    -2.015   -95.887    -2.006   -95.893   -15.169   116.774 
  464.000000   -17.724  -146.731    -1.930  -100.950    -1.921  -100.963   -15.217   118.120 
  468.000000   -16.905  -153.174    -1.855  -105.769    -1.847  -105.784   -15.234   118.584 
  472.000000   -16.330  -158.643    -1.788  -110.365    -1.780  -110.381   -15.263   118.243 
  476.000000   -15.939  -163.528    -1.728  -114.759    -1.718  -114.783   -15.314   117.335 
  480.000000   -15.684  -167.920    -1.671  -118.977    -1.662  -119.004   -15.399   115.901 
  484.000000   -15.550  -171.877    -1.618  -123.032    -1.610  -123.060   -15.528   114.101 
  488.000000   -15.501  -175.467    -1.568  -126.941    -1.559  -126.972   -15.703   111.957 
  492.000000   -15.528  -178.771    -1.520  -130.716    -1.512  -130.749   -15.920   109.598 
  496.000000   -15.625   178.178    -1.474  -134.367    -1.467  -134.404   -16.182   106.979 
  500.000000   -15.777   175.407    -1.430  -137.908    -1.423  -137.943   -16.485   104.179 
  504.000000   -15.981   172.867    -1.388  -141.346    -1.381  -141.380   -16.837   101.231 
  508.000000   -16.224   170.567    -1.347  -144.684    -1.341  -144.722   -17.224    98.111 
  512.000000   -16.510   168.514    -1.308  -147.932    -1.302  -147.972   -17.658    94.875 
  516.000000   -16.831   166.717    -1.271  -151.100    -1.265  -151.142   -18.133    91.473 
  520.000000   -17.187   165.142    -1.235  -154.191    -1.230  -154.226   -18.648    87.898 
  524.000000   -17.568   163.831    -1.201  -157.201    -1.196  -157.240   -19.204    84.172 
  528.000000   -17.980   162.843    -1.168  -160.147    -1.164  -160.183   -19.809    80.219 
  532.000000   -18.410   162.077    -1.137  -163.022    -1.133  -163.057   -20.460    75.998 
  536.000000   -18.865   161.688    -1.107  -165.834    -1.103  -165.867   -21.151    71.526 
  540.000000   -19.330   161.573    -1.079  -168.584    -1.076  -168.616   -21.895    66.680 
  544.000000   -19.810   161.865    -1.053  -171.277    -1.050  -171.307   -22.678    61.450 
  548.000000   -20.287   162.493    -1.028  -173.908    -1.024  -173.940   -23.503    55.602 
  552.000000   -20.763   163.535    -1.004  -176.490    -1.001  -176.519   -24.360    49.089 
  556.000000   -21.226   164.967    -0.981  -179.015    -0.979  -179.044   -25.247    41.713 
  560.000000   -21.663   166.838    -0.960   178.505    -0.958   178.479   -26.108    33.418 
  564.000000   -22.055   169.023    -0.940   176.077    -0.938   176.052   -26.913    23.907 
  568.000000   -22.409   171.647    -0.921   173.697    -0.920   173.674   -27.614    13.338 
  572.000000   -22.700   174.558    -0.903   171.359    -0.903   171.338   -28.124     1.805 
  576.000000   -22.927   177.704    -0.887   169.070    -0.886   169.048   -28.397   -10.396 
  580.000000   -23.078  -179.072    -0.871   166.822    -0.871   166.803   -28.391   -22.545 
  584.000000   -23.151  -175.788    -0.856   164.615    -0.856   164.597   -28.146   -34.011 
  588.000000   -23.149  -172.576    -0.843   162.446    -0.842   162.430   -27.710   -44.504 
  592.000000   -23.092  -169.574    -0.830   160.318    -0.829   160.304   -27.157   -53.724 
  596.000000   -22.980  -166.828    -0.818   158.225    -0.817   158.214   -26.546   -61.787 
  600.000000   -22.814  -164.304    -0.806   156.172    -0.806   156.160   -25.929   -68.852 
  604.000000   -22.617  -162.144    -0.795   154.152    -0.795   154.142   -25.341   -75.032 
  608.000000   -22.400  -160.213    -0.785   152.165    -0.785   152.158   -24.749   -80.470 
  612.000000   -22.162  -158.643    -0.775   150.216    -0.775   150.207   -24.206   -85.316 
  616.000000   -21.913  -157.303    -0.767   148.296    -0.766   148.290   -23.700   -89.723 
  620.000000   -21.668  -156.286    -0.758   146.408    -0.757   146.402   -23.224   -93.695 
  624.000000   -21.420  -155.477    -0.750   144.550    -0.749   144.543   -22.792   -97.349 
  628.000000   -21.181  -154.865    -0.742   142.722    -0.741   142.718   -22.388  -100.730 
  632.000000   -20.947  -154.490    -0.734   140.922    -0.734   140.918   -22.024  -103.917 
  636.000000   -20.717  -154.204    -0.727   139.151    -0.726   139.147   -21.677  -106.829 
  640.000000   -20.502  -154.142    -0.720   137.406    -0.719   137.402   -21.366  -109.645 
  644.000000   -20.296  -154.124    -0.713   135.686    -0.712   135.686   -21.083  -112.288 
  648.000000   -20.098  -154.357    -0.707   133.990    -0.706   133.990   -20.810  -114.792 
  652.000000   -19.922  -154.568    -0.700   132.320    -0.699   132.322   -20.567  -117.234 
  656.000000   -19.747  -154.922    -0.694   130.676    -0.693   130.676   -20.345  -119.556 
  660.000000   -19.592  -155.338    -0.688   129.050    -0.687   129.055   -20.137  -121.749 
  664.000000   -19.440  -155.845    -0.682   127.452    -0.681   127.453   -19.949  -123.893 
  668.000000   -19.303  -156.428    -0.676   125.869    -0.676   125.873   -19.769  -125.934 
  672.000000   -19.175  -157.024    -0.671   124.310    -0.670   124.317   -19.606  -127.981 
  676.000000   -19.061  -157.659    -0.666   122.772    -0.665   122.779   -19.463  -129.853 
  680.000000   -18.954  -158.313    -0.660   121.252    -0.659   121.263   -19.332  -131.713 
  684.000000   -18.864  -159.070    -0.655   119.755    -0.654   119.764   -19.211  -133.543 
  688.000000   -18.776  -159.773    -0.651   118.273    -0.650   118.284   -19.105  -135.317 
  692.000000   -18.703  -160.518    -0.646   116.812    -0.645   116.822   -19.008  -137.029 
  696.000000   -18.636  -161.277    -0.642   115.371    -0.640   115.380   -18.922  -138.696 
  700.000000   -18.580  -162.037    -0.637   113.945    -0.635   113.958   -18.847  -140.364 
  704.000000   -18.525  -162.887    -0.633   112.537    -0.630   112.551   -18.784  -141.954 
  708.000000   -18.486  -163.661    -0.628   111.142    -0.626   111.158   -18.734  -143.538 
  712.000000   -18.453  -164.499    -0.624   109.771    -0.622   109.785   -18.680  -145.068 
  716.000000   -18.429  -165.367    -0.620   108.413    -0.617   108.423   -18.642  -146.555 
  720.000000   -18.405  -166.211    -0.615   107.070    -0.613   107.079   -18.604  -148.047 
  724.000000   -18.391  -167.043    -0.611   105.741    -0.608   105.754   -18.584  -149.457 
  728.000000   -18.389  -167.915    -0.606   104.427    -0.604   104.437   -18.567  -150.876 
  732.000000   -18.383  -168.735    -0.602   103.129    -0.599   103.138   -18.551  -152.245 
  736.000000   -18.388  -169.669    -0.597   101.844    -0.594   101.850   -18.549  -153.639 
  740.000000   -18.403  -170.521    -0.592   100.569    -0.589   100.575   -18.548  -154.987 
  744.000000   -18.419  -171.342    -0.587    99.308    -0.585    99.316   -18.559  -156.311 
  748.000000   -18.447  -172.213    -0.583    98.063    -0.580    98.066   -18.571  -157.602 
  752.000000   -18.472  -173.132    -0.578    96.826    -0.576    96.830   -18.590  -158.876 
  756.000000   -18.504  -173.943    -0.573    95.600    -0.571    95.606   -18.620  -160.148 
  760.000000   -18.540  -174.826    -0.568    94.389    -0.566    94.393   -18.644  -161.382 
  764.000000   -18.581  -175.718    -0.564    93.186    -0.561    93.193   -18.679  -162.598 
  768.000000   -18.633  -176.557    -0.559    91.996    -0.557    92.001   -18.720  -163.818 
  772.000000   -18.683  -177.419    -0.555    90.819    -0.552    90.822   -18.765  -164.998 
  776.000000   -18.742  -178.240    -0.551    89.649    -0.549    89.655   -18.819  -166.177 
  780.000000   -18.812  -179.112    -0.546    88.490    -0.544    88.498   -18.869  -167.367 
  784.000000   -18.874  -179.945    -0.542    87.344    -0.540    87.350   -18.922  -168.432 
  788.000000   -18.952   179.275    -0.537    86.207    -0.535    86.214   -18.995  -169.529 
  792.000000   -19.023   178.455    -0.534    85.076    -0.532    85.088   -19.061  -170.613 
  796.000000   -19.101   177.651    -0.530    83.961    -0.528    83.970   -19.140  -171.677 
  800.000000   -19.191   176.845    -0.526    82.855    -0.524    82.863   -19.213  -172.676 
  804.000000   -19.283   176.047    -0.522    81.756    -0.520    81.768   -19.301  -173.769 
  808.000000   -19.391   175.257    -0.518    80.671    -0.516    80.677   -19.395  -174.762 
  812.000000   -19.486   174.512    -0.514    79.592    -0.512    79.599   -19.484  -175.755 
  816.000000   -19.596   173.726    -0.511    78.524    -0.508    78.529   -19.587  -176.712 
  820.000000   -19.702   172.949    -0.507    77.463    -0.504    77.469   -19.691  -177.699 
  824.000000   -19.824   172.255    -0.503    76.410    -0.500    76.416   -19.801  -178.625 
  828.000000   -19.952   171.466    -0.499    75.366    -0.496    75.371   -19.912  -179.572 
  832.000000   -20.077   170.728    -0.495    74.333    -0.492    74.332   -20.031   179.503 
  836.000000   -20.202   170.001    -0.491    73.304    -0.488    73.305   -20.151   178.642 
  840.000000   -20.347   169.322    -0.487    72.286    -0.484    72.283   -20.274   177.758 
  844.000000   -20.484   168.655    -0.483    71.271    -0.481    71.268   -20.416   176.898 
  848.000000   -20.640   167.945    -0.479    70.263    -0.476    70.263   -20.560   176.075 
  852.000000   -20.785   167.258    -0.475    69.268    -0.472    69.262   -20.701   175.248 
