! Mini-Circuits
! S2P DATA File Format
! Unit Family Type: Filters
! MCL Part No: HFCN-440+
! Note: All S Parameters are in dB deg format
! The Unit was tested at -55 °C
!
# MHz S DB R 50
!    FREQ       dB(S11)   PHS(S11)  dB(S21)   PHS(S21)  dB(S12)   PHS(S12)  dB(S22)   PHS(S22) 
   20.000000    -0.001    -8.235   -95.288    80.082   -93.325    91.553    -0.001    -8.226 
   24.000000    -0.001    -9.877   -89.925    91.254   -91.130    92.699    -0.002    -9.873 
   28.000000    -0.002   -11.527   -89.837    88.809   -90.462    81.565    -0.002   -11.535 
   32.000000    -0.003   -13.179   -88.708    75.683   -89.586    78.830    -0.003   -13.194 
   36.000000    -0.004   -14.834   -87.870    83.770   -88.586    70.957    -0.004   -14.861 
   40.000000    -0.005   -16.490   -88.761    76.406   -88.068    77.879    -0.005   -16.533 
   44.000000    -0.006   -18.149   -88.565    74.592   -87.382    77.149    -0.006   -18.206 
   48.000000    -0.007   -19.813   -87.339    66.858   -87.526    67.683    -0.008   -19.888 
   52.000000    -0.008   -21.482   -86.835    73.115   -87.839    73.694    -0.009   -21.579 
   56.000000    -0.010   -23.160   -87.319    70.997   -87.372    73.548    -0.011   -23.282 
   60.000000    -0.012   -24.842   -88.127    70.137   -88.088    61.512    -0.012   -24.990 
   64.000000    -0.013   -26.537   -87.707    56.335   -87.023    70.026    -0.015   -26.711 
   68.000000    -0.015   -28.234   -87.708    72.405   -87.904    67.275    -0.017   -28.429 
   72.000000    -0.018   -29.942   -87.492    66.835   -87.273    67.272    -0.020   -30.158 
   76.000000    -0.021   -31.649   -86.416    56.718   -86.941    59.300    -0.023   -31.902 
   80.000000    -0.024   -33.375   -87.481    58.669   -86.738    61.091    -0.027   -33.649 
   84.000000    -0.026   -35.101   -86.949    50.401   -86.855    55.256    -0.030   -35.410 
   88.000000    -0.030   -36.841   -85.957    55.282   -86.735    60.179    -0.033   -37.172 
   92.000000    -0.032   -38.589   -85.529    54.188   -84.544    49.778    -0.035   -38.953 
   96.000000    -0.035   -40.344   -85.128    40.578   -82.665    38.366    -0.038   -40.730 
  100.000000    -0.038   -42.107   -82.447    40.980   -84.206    42.521    -0.041   -42.514 
  104.000000    -0.040   -43.867   -82.351    35.100   -81.366    35.864    -0.044   -44.310 
  108.000000    -0.043   -45.637   -80.713    34.938   -80.757    37.711    -0.048   -46.110 
  112.000000    -0.046   -47.402   -79.167    32.277   -79.344    32.496    -0.051   -47.907 
  116.000000    -0.050   -49.174   -77.587    31.517   -77.820    30.784    -0.054   -49.709 
  120.000000    -0.053   -50.962   -76.246    27.061   -76.713    26.726    -0.059   -51.516 
  124.000000    -0.059   -52.737   -74.993    26.086   -74.751    24.955    -0.064   -53.331 
  128.000000    -0.064   -54.528   -73.373    24.616   -73.427    22.660    -0.070   -55.150 
  132.000000    -0.069   -56.320   -71.639    21.155   -71.783    20.920    -0.077   -56.975 
  136.000000    -0.075   -58.118   -70.272    15.656   -70.060    14.586    -0.083   -58.802 
  140.000000    -0.080   -59.913   -69.704    17.084   -69.441    17.134    -0.088   -60.628 
  144.000000    -0.085   -61.717   -67.986    16.610   -68.035    16.768    -0.094   -62.458 
  148.000000    -0.091   -63.528   -66.690    14.466   -66.777    14.653    -0.100   -64.292 
  152.000000    -0.096   -65.340   -65.309    13.008   -65.389    13.784    -0.106   -66.133 
  156.000000    -0.103   -67.157   -64.118    11.757   -64.050    11.484    -0.113   -67.974 
  160.000000    -0.109   -68.986   -62.917     9.606   -62.919     9.730    -0.121   -69.822 
  164.000000    -0.116   -70.820   -61.703     8.142   -61.760     7.969    -0.129   -71.675 
  168.000000    -0.123   -72.652   -60.511     7.046   -60.596     6.026    -0.137   -73.530 
  172.000000    -0.131   -74.505   -59.510     4.454   -59.496     4.639    -0.146   -75.386 
  176.000000    -0.140   -76.357   -58.447     2.780   -58.347     3.406    -0.156   -77.254 
  180.000000    -0.148   -78.218   -57.392     1.076   -57.362     1.255    -0.165   -79.130 
  184.000000    -0.158   -80.093   -56.385    -0.476   -56.451    -0.358    -0.174   -81.003 
  188.000000    -0.166   -81.979   -55.472    -2.118   -55.463    -2.087    -0.184   -82.884 
  192.000000    -0.175   -83.865   -54.569    -3.815   -54.553    -3.915    -0.191   -84.776 
  196.000000    -0.184   -85.768   -53.667    -5.757   -53.666    -5.370    -0.200   -86.670 
  200.000000    -0.192   -87.675   -52.818    -7.417   -52.828    -7.414    -0.209   -88.554 
  204.000000    -0.200   -89.591   -51.967    -8.967   -51.962    -8.946    -0.217   -90.448 
  208.000000    -0.209   -91.510   -51.188   -10.707   -51.169   -10.620    -0.225   -92.346 
  212.000000    -0.220   -93.433   -50.411   -12.341   -50.395   -12.374    -0.233   -94.259 
  216.000000    -0.230   -95.359   -49.669   -14.151   -49.691   -14.124    -0.244   -96.164 
  220.000000    -0.241   -97.296   -48.972   -15.831   -48.956   -15.780    -0.255   -98.080 
  224.000000    -0.252   -99.233   -48.289   -17.491   -48.286   -17.510    -0.267   -99.998 
  230.000000    -0.270  -102.170   -47.338   -19.992   -47.328   -20.052    -0.284  -102.893 
  232.000000    -0.277  -103.152   -47.011   -20.951   -47.020   -20.832    -0.290  -103.858 
  236.000000    -0.291  -105.120   -46.441   -22.619   -46.459   -22.470    -0.302  -105.808 
  240.000000    -0.303  -107.100   -45.879   -24.181   -45.886   -24.135    -0.315  -107.767 
  244.000000    -0.317  -109.094   -45.367   -25.838   -45.372   -25.866    -0.328  -109.737 
  248.000000    -0.331  -111.105   -44.883   -27.355   -44.875   -27.299    -0.340  -111.718 
  252.000000    -0.346  -113.133   -44.439   -29.027   -44.436   -28.922    -0.353  -113.709 
  256.000000    -0.362  -115.173   -44.024   -30.558   -44.018   -30.440    -0.368  -115.721 
  260.000000    -0.378  -117.235   -43.664   -32.087   -43.663   -31.938    -0.385  -117.750 
  264.000000    -0.397  -119.317   -43.351   -33.454   -43.335   -33.438    -0.402  -119.801 
  268.000000    -0.416  -121.426   -43.071   -34.811   -43.051   -34.726    -0.419  -121.872 
  272.000000    -0.436  -123.563   -42.869   -36.018   -42.851   -35.904    -0.438  -123.975 
  276.000000    -0.458  -125.728   -42.719   -37.198   -42.708   -37.021    -0.458  -126.094 
  280.000000    -0.480  -127.931   -42.649   -38.070   -42.646   -37.933    -0.478  -128.248 
  284.000000    -0.502  -130.173   -42.660   -38.665   -42.651   -38.511    -0.499  -130.428 
  288.000000    -0.527  -132.453   -42.790   -38.936   -42.776   -38.855    -0.520  -132.654 
  292.000000    -0.551  -134.766   -43.030   -38.711   -43.029   -38.581    -0.541  -134.906 
  296.000000    -0.577  -137.127   -43.423   -37.601   -43.420   -37.530    -0.565  -137.181 
  300.000000    -0.604  -139.526   -43.995   -35.329   -43.992   -35.254    -0.588  -139.505 
  304.000000    -0.633  -141.976   -44.762   -30.979   -44.760   -30.912    -0.614  -141.865 
  308.000000    -0.665  -144.477   -45.691   -23.306   -45.681   -23.225    -0.643  -144.264 
  312.000000    -0.699  -147.032   -46.569   -10.062   -46.538    -9.977    -0.670  -146.722 
  316.000000    -0.735  -149.647   -46.667     9.299   -46.682     9.414    -0.701  -149.221 
  320.000000    -0.774  -152.333   -45.366    30.271   -45.358    30.301    -0.734  -151.775 
  324.000000    -0.816  -155.085   -42.970    45.936   -42.963    45.980    -0.769  -154.381 
  328.000000    -0.862  -157.911   -40.274    55.521   -40.259    55.561    -0.806  -157.060 
  332.000000    -0.912  -160.827   -37.663    60.874   -37.647    60.917    -0.848  -159.801 
  336.000000    -0.966  -163.837   -35.223    63.448   -35.210    63.499    -0.893  -162.626 
  340.000000    -1.027  -166.953   -32.957    64.323   -32.942    64.385    -0.940  -165.526 
  344.000000    -1.093  -170.184   -30.846    64.022   -30.831    64.044    -0.995  -168.530 
  350.000000    -1.209  -175.301   -27.913    62.038   -27.896    62.057    -1.086  -173.198 
  352.000000    -1.252  -177.072   -26.987    61.060   -26.969    61.086    -1.120  -174.826 
  356.000000    -1.348   179.248   -25.196    58.731   -25.178    58.742    -1.194  -178.145 
  360.000000    -1.458   175.380   -23.479    55.937   -23.459    55.947    -1.281   178.395 
  364.000000    -1.583   171.312   -21.824    52.752   -21.806    52.743    -1.379   174.772 
  368.000000    -1.731   166.995   -20.224    49.154   -20.206    49.152    -1.494   170.996 
  372.000000    -1.904   162.421   -18.676    45.185   -18.658    45.174    -1.627   167.033 
  376.000000    -2.109   157.551   -17.174    40.832   -17.157    40.808    -1.785   162.884 
  380.000000    -2.355   152.367   -15.717    36.072   -15.700    36.044    -1.972   158.512 
  384.000000    -2.649   146.814   -14.307    30.906   -14.292    30.863    -2.199   153.955 
  388.000000    -3.009   140.893   -12.949    25.302   -12.934    25.260    -2.472   149.144 
  392.000000    -3.447   134.547   -11.647    19.276   -11.633    19.226    -2.804   144.148 
  396.000000    -3.982   127.795   -10.411    12.819   -10.398    12.767    -3.207   138.973 
  400.000000    -4.637   120.611    -9.247     5.938    -9.237     5.884    -3.693   133.683 
  404.000000    -5.440   113.026    -8.169    -1.316    -8.159    -1.367    -4.278   128.368 
  408.000000    -6.418   105.071    -7.185    -8.890    -7.178    -8.938    -4.975   123.164 
  412.000000    -7.612    96.776    -6.306   -16.699    -6.298   -16.744    -5.791   118.247 
  416.000000    -9.065    88.205    -5.533   -24.631    -5.528   -24.668    -6.730   113.833 
  420.000000   -10.835    79.346    -4.871   -32.574    -4.866   -32.606    -7.777   110.164 
  424.000000   -13.003    70.111    -4.312   -40.426    -4.308   -40.450    -8.918   107.518 
  428.000000   -15.728    60.108    -3.849   -48.071    -3.845   -48.084   -10.102   106.142 
  432.000000   -19.314    48.183    -3.472   -55.447    -3.467   -55.459   -11.282   106.177 
  436.000000   -24.416    29.799    -3.166   -62.504    -3.160   -62.511   -12.377   107.614 
  440.000000   -31.222   -20.797    -2.919   -69.208    -2.912   -69.211   -13.299   110.289 
  444.000000   -28.263   -95.913    -2.718   -75.562    -2.711   -75.566   -14.011   113.592 
  448.000000   -23.514  -120.762    -2.555   -81.577    -2.546   -81.582   -14.495   116.953 
  452.000000   -20.680  -132.567    -2.418   -87.260    -2.410   -87.265   -14.774   119.918 
  456.000000   -18.854  -140.730    -2.304   -92.648    -2.294   -92.654   -14.924   122.027 
  460.000000   -17.614  -147.197    -2.204   -97.758    -2.194   -97.768   -14.993   123.212 
  464.000000   -16.762  -152.649    -2.117  -102.621    -2.107  -102.634   -15.044   123.608 
  468.000000   -16.165  -157.508    -2.039  -107.258    -2.028  -107.275   -15.095   123.286 
  472.000000   -15.761  -161.798    -1.967  -111.690    -1.957  -111.710   -15.181   122.330 
  476.000000   -15.508  -165.746    -1.901  -115.940    -1.891  -115.968   -15.303   120.923 
  480.000000   -15.372  -169.344    -1.839  -120.030    -1.829  -120.057   -15.465   119.106 
  484.000000   -15.334  -172.633    -1.781  -123.966    -1.771  -123.997   -15.682   117.014 
  488.000000   -15.368  -175.589    -1.725  -127.771    -1.716  -127.802   -15.942   114.626 
  492.000000   -15.481  -178.342    -1.673  -131.449    -1.664  -131.483   -16.249   112.055 
  496.000000   -15.644   179.157    -1.622  -135.014    -1.613  -135.050   -16.608   109.251 
  500.000000   -15.861   176.897    -1.574  -138.473    -1.565  -138.512   -17.005   106.301 
  504.000000   -16.121   174.880    -1.527  -141.838    -1.520  -141.873   -17.454   103.175 
  508.000000   -16.418   173.094    -1.483  -145.106    -1.476  -145.146   -17.946    99.858 
  512.000000   -16.751   171.537    -1.441  -148.290    -1.434  -148.331   -18.482    96.429 
  516.000000   -17.108   170.272    -1.401  -151.399    -1.394  -151.439   -19.065    92.744 
  520.000000   -17.501   169.252    -1.362  -154.429    -1.356  -154.466   -19.690    88.900 
  524.000000   -17.905   168.499    -1.326  -157.384    -1.319  -157.423   -20.363    84.782 
  528.000000   -18.332   168.045    -1.291  -160.275    -1.286  -160.311   -21.088    80.380 
  532.000000   -18.771   167.873    -1.258  -163.099    -1.253  -163.134   -21.869    75.609 
  536.000000   -19.219   168.076    -1.227  -165.858    -1.222  -165.893   -22.686    70.454 
  540.000000   -19.666   168.627    -1.198  -168.559    -1.193  -168.591   -23.562    64.644 
  544.000000   -20.115   169.539    -1.170  -171.201    -1.166  -171.231   -24.482    58.287 
  548.000000   -20.547   170.823    -1.143  -173.784    -1.139  -173.815   -25.441    50.897 
  552.000000   -20.963   172.473    -1.119  -176.319    -1.115  -176.347   -26.399    42.444 
  556.000000   -21.340   174.525    -1.095  -178.797    -1.092  -178.825   -27.339    32.625 
  560.000000   -21.681   176.997    -1.073   178.769    -1.070   178.742   -28.161    21.329 
  564.000000   -21.959   179.685    -1.051   176.388    -1.049   176.363   -28.790     8.593 
  568.000000   -22.179  -177.309    -1.032   174.051    -1.030   174.029   -29.110    -5.068 
  572.000000   -22.329  -174.169    -1.013   171.757    -1.011   171.735   -29.066   -18.847 
  576.000000   -22.397  -170.943    -0.995   169.508    -0.993   169.488   -28.697   -31.783 
  580.000000   -22.398  -167.820    -0.979   167.301    -0.977   167.284   -28.112   -43.284 
  584.000000   -22.330  -164.791    -0.963   165.132    -0.961   165.117   -27.389   -53.125 
  588.000000   -22.207  -161.948    -0.948   163.005    -0.947   162.990   -26.617   -61.491 
  592.000000   -22.033  -159.437    -0.935   160.915    -0.933   160.901   -25.849   -68.590 
  596.000000   -21.831  -157.218    -0.922   158.858    -0.920   158.850   -25.116   -74.637 
  600.000000   -21.596  -155.370    -0.909   156.846    -0.908   156.832   -24.433   -79.917 
  604.000000   -21.353  -153.825    -0.898   154.859    -0.896   154.851   -23.804   -84.568 
  608.000000   -21.109  -152.579    -0.887   152.912    -0.886   152.902   -23.228   -88.616 
  612.000000   -20.854  -151.593    -0.877   150.998    -0.875   150.992   -22.704   -92.265 
  616.000000   -20.602  -150.901    -0.868   149.114    -0.866   149.106   -22.228   -95.612 
  620.000000   -20.367  -150.394    -0.858   147.261    -0.856   147.256   -21.795   -98.641 
  624.000000   -20.140  -150.124    -0.850   145.439    -0.847   145.434   -21.408  -101.461 
  628.000000   -19.927  -150.039    -0.841   143.647    -0.839   143.642   -21.054  -104.080 
  632.000000   -19.730  -150.098    -0.833   141.882    -0.831   141.876   -20.738  -106.576 
  636.000000   -19.538  -150.248    -0.825   140.143    -0.823   140.141   -20.441  -108.919 
  640.000000   -19.364  -150.552    -0.817   138.433    -0.815   138.431   -20.183  -111.128 
  644.000000   -19.199  -150.877    -0.810   136.748    -0.807   136.747   -19.950  -113.301 
  648.000000   -19.049  -151.380    -0.803   135.085    -0.800   135.084   -19.726  -115.367 
  652.000000   -18.907  -151.859    -0.795   133.448    -0.793   133.448   -19.537  -117.417 
  656.000000   -18.774  -152.426    -0.788   131.833    -0.786   131.835   -19.358  -119.407 
  660.000000   -18.655  -153.030    -0.781   130.243    -0.779   130.246   -19.194  -121.315 
  664.000000   -18.538  -153.679    -0.775   128.671    -0.772   128.673   -19.042  -123.231 
  668.000000   -18.427  -154.368    -0.768   127.121    -0.766   127.123   -18.898  -125.047 
  672.000000   -18.326  -155.033    -0.762   125.591    -0.759   125.596   -18.767  -126.915 
  676.000000   -18.234  -155.765    -0.756   124.082    -0.753   124.088   -18.654  -128.673 
  680.000000   -18.144  -156.453    -0.750   122.593    -0.747   122.602   -18.542  -130.417 
  684.000000   -18.068  -157.188    -0.744   121.122    -0.742   121.130   -18.442  -132.160 
  688.000000   -17.993  -157.921    -0.739   119.672    -0.736   119.681   -18.349  -133.852 
  692.000000   -17.925  -158.688    -0.734   118.238    -0.731   118.247   -18.266  -135.510 
  696.000000   -17.866  -159.411    -0.729   116.822    -0.725   116.832   -18.193  -137.093 
  700.000000   -17.815  -160.185    -0.723   115.426    -0.720   115.438   -18.123  -138.676 
  704.000000   -17.770  -161.025    -0.718   114.045    -0.715   114.059   -18.065  -140.208 
  708.000000   -17.733  -161.823    -0.713   112.681    -0.710   112.695   -18.019  -141.733 
  712.000000   -17.705  -162.639    -0.709   111.335    -0.705   111.349   -17.970  -143.153 
  716.000000   -17.686  -163.514    -0.704   110.005    -0.700   110.015   -17.941  -144.553 
  720.000000   -17.675  -164.384    -0.699   108.692    -0.695   108.699   -17.911  -145.938 
  724.000000   -17.672  -165.225    -0.694   107.389    -0.690   107.400   -17.899  -147.223 
  728.000000   -17.689  -166.135    -0.689   106.102    -0.685   106.111   -17.895  -148.511 
  732.000000   -17.697  -166.999    -0.684   104.833    -0.679   104.840   -17.890  -149.714 
  736.000000   -17.722  -167.939    -0.678   103.573    -0.674   103.579   -17.909  -150.957 
  740.000000   -17.760  -168.821    -0.673   102.328    -0.668   102.330   -17.925  -152.152 
  744.000000   -17.802  -169.648    -0.667   101.092    -0.663   101.097   -17.954  -153.324 
  748.000000   -17.853  -170.532    -0.661    99.873    -0.657    99.874   -17.989  -154.476 
  752.000000   -17.901  -171.419    -0.655    98.660    -0.651    98.663   -18.030  -155.636 
  756.000000   -17.961  -172.230    -0.650    97.459    -0.646    97.463   -18.082  -156.784 
  760.000000   -18.022  -173.053    -0.644    96.270    -0.641    96.274   -18.134  -157.923 
  764.000000   -18.086  -173.939    -0.638    95.089    -0.635    95.095   -18.194  -159.052 
  768.000000   -18.159  -174.707    -0.633    93.923    -0.630    93.924   -18.261  -160.234 
  772.000000   -18.223  -175.511    -0.628    92.765    -0.624    92.768   -18.331  -161.358 
  776.000000   -18.299  -176.261    -0.623    91.618    -0.620    91.622   -18.411  -162.553 
  780.000000   -18.377  -177.042    -0.619    90.481    -0.615    90.488   -18.483  -163.739 
  784.000000   -18.454  -177.754    -0.614    89.358    -0.610    89.364   -18.554  -164.820 
  788.000000   -18.539  -178.407    -0.609    88.244    -0.605    88.249   -18.642  -165.939 
  792.000000   -18.613  -179.105    -0.604    87.134    -0.601    87.143   -18.720  -167.065 
  796.000000   -18.686  -179.773    -0.600    86.037    -0.596    86.047   -18.806  -168.201 
  800.000000   -18.770   179.530    -0.596    84.953    -0.592    84.960   -18.881  -169.228 
  804.000000   -18.849   178.854    -0.591    83.876    -0.588    83.884   -18.971  -170.407 
  808.000000   -18.949   178.175    -0.587    82.808    -0.583    82.813   -19.062  -171.475 
  812.000000   -19.029   177.493    -0.584    81.745    -0.580    81.751   -19.147  -172.536 
  816.000000   -19.102   176.683    -0.583    80.679    -0.578    80.683   -19.241  -173.813 
  820.000000   -19.305   175.800    -0.578    79.722    -0.574    79.726   -19.434  -174.319 
  824.000000   -19.390   175.397    -0.570    78.665    -0.566    78.669   -19.487  -175.224 
  828.000000   -19.510   174.664    -0.566    77.636    -0.562    77.638   -19.585  -176.104 
  832.000000   -19.637   173.924    -0.561    76.620    -0.558    76.620   -19.698  -176.992 
  836.000000   -19.770   173.220    -0.557    75.611    -0.553    75.612   -19.816  -177.757 
  840.000000   -19.922   172.524    -0.552    74.614    -0.548    74.610   -19.944  -178.540 
  844.000000   -20.074   171.853    -0.547    73.620    -0.544    73.618   -20.088  -179.259 
  848.000000   -20.245   171.147    -0.543    72.634    -0.539    72.632   -20.240  -179.940 
  852.000000   -20.415   170.507    -0.538    71.659    -0.534    71.651   -20.397   179.394 
