! Mini-Circuits						
! S3P DATA File Format						
! Type: Diplexer						
! Model: RDP-50-2R15+						
! PINOUT: Com=PORT1 , LP=PORT2 , HP=PORT3						
! TEST CONDITIONS: INPUT POWER = 0 dBm @ Temperature = +25 deg C					
!						
! All S Parameters are in dB deg format
!
# MHz S dB R 50
!Frequency        S11 dB  S11 DEG   S12 dB  S12 DEG   S13 dB  S13 DEG
!                 S21 dB  S21 DEG   S22 dB  S22 DEG   S23 dB  S23 DEG
!                 S31 dB  S31 DEG   S32 dB  S32 DEG   S33 dB  S33 DEG
   1.0000     -3.687877E+001  2.067974E+001 -1.737700E-001 -2.890185E+000 -1.002380E+002  8.314181E+001
              -1.760952E-001 -2.904615E+000 -3.709175E+001  1.975165E+001 -1.060346E+002  1.040399E+002
              -1.061563E+002  1.723396E+002 -9.487879E+001 -1.649486E+002 -4.867357E-002 -3.336695E-001
   2.0000     -3.568636E+001  3.222112E+001 -1.759003E-001 -5.791799E+000 -1.063431E+002 -2.180761E+001
              -1.702709E-001 -5.796877E+000 -3.545861E+001  3.149860E+001 -1.114691E+002  6.886098E+001
              -1.091978E+002  1.523975E+002 -1.065509E+002 -5.489084E+001 -4.991624E-002 -6.866809E-001
   3.0000     -3.402095E+001  4.083087E+001 -1.754639E-001 -8.636588E+000 -1.008795E+002  1.201052E+002
              -1.779460E-001 -8.643104E+000 -3.392080E+001  3.812067E+001 -1.091417E+002  3.287288E+001
              -1.021095E+002  1.349062E+002 -9.834601E+001 -3.385067E+001 -5.010728E-002 -1.028749E+000
   4.0000     -3.241344E+001  4.598322E+001 -1.786205E-001 -1.151365E+001 -1.026959E+002 -8.365450E+001
              -1.791943E-001 -1.150618E+001 -3.231012E+001  4.331004E+001 -1.050449E+002 -3.916658E+001
              -1.087904E+002  7.887093E+001 -1.123975E+002 -1.070629E+002 -4.692276E-002 -1.371165E+000
   5.0000     -3.107770E+001  4.856226E+001 -1.803878E-001 -1.438495E+001 -1.058992E+002  6.332220E+001
              -1.821487E-001 -1.439229E+001 -3.088571E+001  4.455816E+001 -1.018774E+002 -6.534154E+001
              -1.053964E+002 -2.234441E+001 -1.003887E+002  1.190124E+002 -4.595125E-002 -1.724148E+000
   6.0000     -2.994492E+001  4.980882E+001 -1.849128E-001 -1.724836E+001 -1.125731E+002 -1.673626E+002
              -1.866156E-001 -1.725797E+001 -2.967337E+001  4.504365E+001 -1.039166E+002  1.457545E+002
              -9.782080E+001 -8.036585E+001 -1.100488E+002 -1.548887E+002 -4.393549E-002 -2.056348E+000
   7.0000     -2.890511E+001  5.012524E+001 -1.898727E-001 -2.010040E+001 -1.035031E+002  7.202648E+001
              -1.917634E-001 -2.011817E+001 -2.862921E+001  4.432642E+001 -1.052707E+002 -5.806811E+000
              -1.195729E+002 -1.421858E+002 -1.029463E+002 -2.207845E+001 -4.490721E-002 -2.402380E+000
   8.0000     -2.798932E+001  4.950892E+001 -1.948001E-001 -2.298525E+001 -9.828116E+001 -1.716154E+002
              -1.962611E-001 -2.298234E+001 -2.770016E+001  4.277131E+001 -1.030713E+002 -6.571633E+001
              -1.002369E+002 -1.721538E+002 -9.945312E+001  9.171574E+001 -4.545036E-002 -2.733360E+000
   9.0000     -2.717727E+001  4.830025E+001 -2.012817E-001 -2.585754E+001 -1.254330E+002 -3.483462E+001
              -2.017829E-001 -2.585516E+001 -2.685495E+001  4.053786E+001 -9.972017E+001  9.248354E+001
              -9.695543E+001 -8.891478E+000 -1.017603E+002  4.535915E+001 -4.571787E-002 -3.088759E+000
  10.0000     -2.646318E+001  4.670466E+001 -2.057798E-001 -2.870877E+001 -9.996529E+001  3.740556E+001
              -2.072617E-001 -2.871550E+001 -2.610267E+001  3.805653E+001 -1.036736E+002  1.119022E+002
              -9.649015E+001  5.653598E+000 -9.854417E+001  9.120047E+001 -4.286340E-002 -3.420733E+000
  11.0000     -2.585572E+001  4.506162E+001 -2.133374E-001 -3.158138E+001 -9.586862E+001  1.182663E+002
              -2.147198E-001 -3.158535E+001 -2.547633E+001  3.541052E+001 -1.252041E+002 -1.107038E+002
              -1.039426E+002  1.508322E+002 -1.019847E+002  3.192202E+001 -4.169744E-002 -3.757800E+000
  12.0000     -2.536896E+001  4.360228E+001 -2.182046E-001 -3.444486E+001 -1.117100E+002  1.080157E+002
              -2.209695E-001 -3.442667E+001 -2.492313E+001  3.273936E+001 -1.062925E+002  1.085028E+002
              -9.654306E+001 -1.185534E+001 -1.040390E+002  1.776152E+001 -4.337198E-002 -4.102371E+000
  13.0000     -2.495389E+001  4.197242E+001 -2.251543E-001 -3.731856E+001 -1.105382E+002  3.977969E+001
              -2.258830E-001 -3.730321E+001 -2.445542E+001  2.986323E+001 -9.989797E+001 -3.713313E+000
              -1.071225E+002 -1.647059E+002 -1.083474E+002  4.722268E+001 -4.177700E-002 -4.448201E+000
  14.0000     -2.458463E+001  4.048046E+001 -2.334744E-001 -4.017735E+001 -9.877362E+001 -9.555640E+001
              -2.325756E-001 -4.017662E+001 -2.405986E+001  2.692981E+001 -1.045386E+002 -1.798707E+002
              -1.092643E+002  8.322773E+001 -1.056758E+002 -1.255610E+002 -3.912413E-002 -4.781297E+000
  15.0000     -2.428521E+001  3.887121E+001 -2.374361E-001 -4.304393E+001 -1.080638E+002  1.384254E+002
              -2.367306E-001 -4.304877E+001 -2.367985E+001  2.382584E+001 -9.551446E+001  1.595621E+002
              -1.055872E+002 -9.918805E+001 -1.039108E+002 -9.244634E+001 -4.018386E-002 -5.129649E+000
  16.0000     -2.396738E+001  3.732014E+001 -2.433409E-001 -4.591957E+001 -1.177830E+002 -1.053727E+002
              -2.438385E-001 -4.592107E+001 -2.335175E+001  2.080189E+001 -1.008136E+002 -1.339944E+002
              -9.328957E+001 -6.756124E+001 -9.993049E+001  2.892336E+001 -4.059367E-002 -5.465531E+000
  17.0000     -2.369822E+001  3.559479E+001 -2.491118E-001 -4.879616E+001 -1.026624E+002 -5.685052E+001
              -2.502925E-001 -4.880347E+001 -2.307471E+001  1.767774E+001 -1.121551E+002 -1.212698E+002
              -9.346915E+001 -3.654256E+001 -9.843414E+001 -7.859409E+001 -4.009883E-002 -5.810959E+000
  18.0000     -2.346357E+001  3.394195E+001 -2.535054E-001 -5.168260E+001 -9.681775E+001 -3.900253E+001
              -2.547983E-001 -5.167592E+001 -2.281437E+001  1.440522E+001 -1.062209E+002 -8.898260E+001
              -1.059278E+002  8.662819E+001 -1.060750E+002  2.913821E+001 -3.892166E-002 -6.154959E+000
  19.0000     -2.328054E+001  3.226579E+001 -2.607467E-001 -5.456383E+001 -1.088194E+002 -4.752803E+000
              -2.613181E-001 -5.456461E+001 -2.258612E+001  1.108516E+001 -1.011760E+002  1.262191E+002
              -9.966872E+001 -6.032302E+001 -1.044661E+002 -4.909536E+001 -3.852074E-002 -6.483999E+000
  20.0000     -2.311808E+001  3.055685E+001 -2.648483E-001 -5.745127E+001 -1.087138E+002 -3.998919E+001
              -2.664993E-001 -5.744654E+001 -2.239264E+001  7.717209E+000 -9.805044E+001 -9.754408E+001
              -1.054511E+002  3.488467E+001 -9.384388E+001  1.794979E+002 -3.818956E-002 -6.833354E+000
  21.0000     -2.298099E+001  2.884108E+001 -2.704700E-001 -6.033978E+001 -1.028705E+002 -7.286246E+001
              -2.731608E-001 -6.033759E+001 -2.223890E+001  4.290885E+000 -1.032206E+002  1.286022E+002
              -1.024923E+002  1.199324E+002 -1.053291E+002 -1.318110E+002 -3.738390E-002 -7.166473E+000
  22.0000     -2.288823E+001  2.712331E+001 -2.758098E-001 -6.324826E+001 -9.965762E+001 -1.178292E+002
              -2.782030E-001 -6.324724E+001 -2.213271E+001  6.531827E-001 -1.162364E+002  3.164947E+000
              -1.019621E+002 -1.081410E+002 -9.610789E+001 -1.786397E+002 -3.650611E-002 -7.517374E+000
  23.0000     -2.286937E+001  2.551813E+001 -2.819884E-001 -6.616591E+001 -9.999760E+001 -1.103459E+002
              -2.833092E-001 -6.615873E+001 -2.201672E+001 -2.998004E+000 -1.014452E+002  1.427164E+002
              -1.007410E+002 -1.309420E+002 -9.728834E+001 -1.553118E+002 -3.608214E-002 -7.850819E+000
  24.0000     -2.283301E+001  2.377245E+001 -2.864003E-001 -6.907085E+001 -9.892244E+001 -1.844616E+001
              -2.875679E-001 -6.908469E+001 -2.195464E+001 -6.782833E+000 -9.623009E+001  1.253287E+002
              -9.928590E+001 -8.499703E+001 -9.762017E+001  1.203762E+002 -3.820379E-002 -8.194521E+000
  25.0000     -2.284453E+001  2.210901E+001 -2.911577E-001 -7.201023E+001 -1.039436E+002  1.099388E+002
              -2.950232E-001 -7.200530E+001 -2.191211E+001 -1.068348E+001 -1.018382E+002 -1.763861E+002
              -1.092479E+002 -1.106662E+002 -1.047683E+002 -4.810173E+001 -3.815998E-002 -8.536395E+000
  26.0000     -2.288889E+001  2.053214E+001 -2.971209E-001 -7.494233E+001 -1.080585E+002 -1.252568E+002
              -3.004109E-001 -7.494392E+001 -2.189441E+001 -1.466952E+001 -1.104836E+002 -9.806693E+001
              -1.013725E+002 -4.063195E+001 -1.102875E+002  1.758746E+002 -3.886592E-002 -8.884831E+000
  27.0000     -2.296164E+001  1.914912E+001 -3.027910E-001 -7.789868E+001 -9.754295E+001 -5.109789E+001
              -3.024428E-001 -7.788999E+001 -2.189604E+001 -1.866509E+001 -9.844258E+001 -1.595289E+002
              -9.191087E+001 -9.873015E+001 -9.599632E+001  1.679785E+002 -3.815242E-002 -9.224624E+000
  28.0000     -2.304955E+001  1.764330E+001 -3.065485E-001 -8.085899E+001 -1.038544E+002 -3.419735E+001
              -3.079562E-001 -8.085308E+001 -2.191041E+001 -2.280090E+001 -9.873746E+001  1.713827E+002
              -1.079357E+002 -8.592490E+001 -1.097504E+002 -1.295020E+001 -3.606839E-002 -9.559485E+000
  29.0000     -2.315023E+001  1.639169E+001 -3.121125E-001 -8.382384E+001 -9.404078E+001 -1.186540E+002
              -3.132150E-001 -8.382175E+001 -2.193689E+001 -2.693608E+001 -9.936462E+001 -1.525896E+002
              -1.138992E+002 -6.091602E+001 -1.007694E+002 -1.524675E+002 -3.560091E-002 -9.907563E+000
  30.0000     -2.328905E+001  1.501879E+001 -3.156274E-001 -8.681157E+001 -1.004174E+002 -1.191746E+002
              -3.188315E-001 -8.679501E+001 -2.200567E+001 -3.127748E+001 -9.556064E+001  1.510073E+002
              -9.516728E+001 -7.823276E+001 -9.513190E+001 -1.639221E+002 -3.643920E-002 -1.024301E+001
  31.0000     -2.339846E+001  1.388160E+001 -3.225497E-001 -8.980699E+001 -9.746530E+001  1.014825E+002
              -3.253177E-001 -8.980379E+001 -2.205163E+001 -3.547581E+001 -9.610220E+001  1.024369E+002
              -1.102727E+002 -1.376259E+002 -1.004548E+002  1.666585E+002 -3.698337E-002 -1.059287E+001
  32.0000     -2.354818E+001  1.258182E+001 -3.257584E-001 -9.282129E+001 -9.656339E+001  1.586761E+002
              -3.276628E-001 -9.282298E+001 -2.211920E+001 -3.995906E+001 -9.310761E+001  1.689798E+002
              -1.031021E+002 -1.399862E+002 -9.744867E+001  1.588339E+002 -3.486485E-002 -1.094326E+001
  33.0000     -2.370387E+001  1.163393E+001 -3.309502E-001 -9.585738E+001 -1.182886E+002  4.118659E+001
              -3.347678E-001 -9.584712E+001 -2.220492E+001 -4.440819E+001 -9.473560E+001 -1.575089E+002
              -9.353181E+001 -4.567509E+001 -9.601498E+001 -1.566047E+002 -3.528258E-002 -1.126803E+001
  34.0000     -2.388444E+001  1.044122E+001 -3.379540E-001 -9.888530E+001 -9.137296E+001 -5.279118E+001
              -3.396813E-001 -9.888146E+001 -2.227663E+001 -4.878680E+001 -9.360375E+001 -1.429360E+002
              -9.782998E+001 -1.310958E+002 -9.737917E+001  1.442840E+002 -3.588080E-002 -1.160676E+001
  35.0000     -2.402839E+001  9.476485E+000 -3.422676E-001 -1.019575E+002 -9.531261E+001 -1.246640E+002
              -3.438480E-001 -1.019322E+002 -2.238296E+001 -5.341702E+001 -9.312628E+001  1.460463E+002
              -1.041730E+002 -1.480577E+002 -9.469953E+001 -1.414173E+002 -3.570773E-002 -1.195461E+001
  36.0000     -2.420876E+001  8.385929E+000 -3.461426E-001 -1.050275E+002 -9.280090E+001 -1.781089E+002
              -3.497545E-001 -1.050219E+002 -2.245946E+001 -5.784771E+001 -9.534293E+001 -1.357875E+002
              -9.637010E+001 -1.051617E+002 -1.037106E+002 -1.700708E+002 -3.502624E-002 -1.230147E+001
  37.0000     -2.436757E+001  7.332994E+000 -3.498379E-001 -1.081247E+002 -1.021311E+002 -7.411489E+001
              -3.545983E-001 -1.081024E+002 -2.255397E+001 -6.236124E+001 -9.926501E+001 -1.497567E+002
              -9.378823E+001 -1.171955E+002 -1.023608E+002  1.529164E+002 -3.383765E-002 -1.263164E+001
  38.0000     -2.450055E+001  6.271252E+000 -3.578494E-001 -1.112261E+002 -9.273326E+001 -7.059708E+001
              -3.602915E-001 -1.112137E+002 -2.265935E+001 -6.666230E+001 -9.788069E+001 -1.745528E+002
              -1.037203E+002 -9.859254E+001 -9.377306E+001 -1.749945E+002 -3.483066E-002 -1.298350E+001
  39.0000     -2.465608E+001  4.990888E+000 -3.655462E-001 -1.143645E+002 -9.127407E+001 -1.170036E+002
              -3.662888E-001 -1.143454E+002 -2.276062E+001 -7.092367E+001 -9.691524E+001 -1.482612E+002
              -9.117797E+001 -1.161019E+002 -1.012454E+002  1.648640E+002 -3.310865E-002 -1.331976E+001
  40.0000     -2.477288E+001  3.953781E+000 -3.702560E-001 -1.175080E+002 -9.911772E+001 -1.247127E+002
              -3.723645E-001 -1.174941E+002 -2.284083E+001 -7.510815E+001 -9.635033E+001 -1.691080E+002
              -8.930486E+001 -1.364590E+002 -9.213572E+001  1.754916E+002 -3.351039E-002 -1.366388E+001
  41.0000     -2.488977E+001  2.190482E+000 -3.764621E-001 -1.206781E+002 -9.681680E+001 -1.207790E+002
              -3.784000E-001 -1.206670E+002 -2.293279E+001 -7.920515E+001 -9.568934E+001  1.572210E+002
              -9.364773E+001 -1.329955E+002 -1.023471E+002 -1.537055E+002 -3.408156E-002 -1.399630E+001
  42.0000     -2.496928E+001  3.506342E-001 -3.840861E-001 -1.238768E+002 -9.289816E+001 -1.793456E+002
              -3.847740E-001 -1.238607E+002 -2.301283E+001 -8.286195E+001 -1.059918E+002  1.258459E+002
              -9.766482E+001 -1.780055E+002 -9.513016E+001  1.669128E+002 -3.309624E-002 -1.434367E+001
  43.0000     -2.501993E+001 -1.811039E+000 -3.911002E-001 -1.270963E+002 -9.059812E+001 -1.537360E+002
              -3.922746E-001 -1.270822E+002 -2.310571E+001 -8.632909E+001 -9.552840E+001 -1.788627E+002
              -9.016891E+001 -1.342980E+002 -8.914510E+001  1.688576E+002 -3.476647E-002 -1.468429E+001
  44.0000     -2.507138E+001 -4.373624E+000 -3.974006E-001 -1.303361E+002 -1.004326E+002 -1.067430E+002
              -3.987904E-001 -1.303270E+002 -2.315511E+001 -8.939809E+001 -9.360860E+001 -1.749040E+002
              -8.917424E+001 -1.677249E+002 -9.023719E+001 -1.639509E+002 -3.451828E-002 -1.503869E+001
  45.0000     -2.508168E+001 -7.568135E+000 -4.059224E-001 -1.336145E+002 -9.198366E+001 -8.352628E+001
              -4.068757E-001 -1.336026E+002 -2.322200E+001 -9.234248E+001 -9.893836E+001  1.776967E+002
              -8.966651E+001 -1.268529E+002 -9.261318E+001 -1.582847E+002 -3.445585E-002 -1.537402E+001
  46.0000     -2.505689E+001 -1.123338E+001 -4.120134E-001 -1.369197E+002 -9.074039E+001 -1.613800E+002
              -4.145288E-001 -1.369052E+002 -2.325043E+001 -9.450414E+001 -9.023086E+001  1.648073E+002
              -8.937013E+001 -1.459456E+002 -8.965450E+001  1.685189E+002 -3.344813E-002 -1.570876E+001
  47.0000     -2.502218E+001 -1.562378E+001 -4.195454E-001 -1.402501E+002 -9.177328E+001 -1.297544E+002
              -4.220080E-001 -1.402408E+002 -2.322067E+001 -9.641821E+001 -9.032465E+001  1.791568E+002
              -9.132799E+001 -1.750520E+002 -8.837178E+001 -1.710568E+002 -3.389124E-002 -1.605196E+001
  48.0000     -2.490873E+001 -2.057542E+001 -4.287497E-001 -1.436285E+002 -9.384296E+001 -1.439600E+002
              -4.304362E-001 -1.436090E+002 -2.319520E+001 -9.777184E+001 -8.879460E+001  1.707133E+002
              -9.102807E+001 -1.784997E+002 -8.923046E+001 -1.726402E+002 -3.411821E-002 -1.639265E+001
  49.0000     -2.473728E+001 -2.634758E+001 -4.381438E-001 -1.470203E+002 -8.942506E+001  1.648896E+002
              -4.373711E-001 -1.470119E+002 -2.309827E+001 -9.852612E+001 -9.151813E+001 -1.700826E+002
              -8.854443E+001  1.756134E+002 -8.984629E+001 -1.627023E+002 -3.596668E-002 -1.673672E+001
  50.0000     -2.450481E+001 -3.268573E+001 -4.461593E-001 -1.504599E+002 -9.135737E+001 -1.778835E+002
              -4.479078E-001 -1.504505E+002 -2.294720E+001 -9.877569E+001 -8.931375E+001  1.574197E+002
              -8.710925E+001 -1.636716E+002 -9.183604E+001 -1.560911E+002 -3.383474E-002 -1.708979E+001
  51.0000     -2.415843E+001 -3.976109E+001 -4.576567E-001 -1.539462E+002 -8.700455E+001 -1.708735E+002
              -4.573532E-001 -1.539511E+002 -2.269465E+001 -9.858136E+001 -9.226676E+001  1.727684E+002
              -9.017347E+001  1.761982E+002 -9.023111E+001  1.698082E+002 -3.384280E-002 -1.742920E+001
  52.0000     -2.372471E+001 -4.734949E+001 -4.696857E-001 -1.574801E+002 -8.920251E+001 -1.756653E+002
              -4.704752E-001 -1.574755E+002 -2.236119E+001 -9.794489E+001 -8.683415E+001  1.791709E+002
              -8.771236E+001 -1.511194E+002 -9.047371E+001  1.719597E+002 -3.477037E-002 -1.776650E+001
  53.0000     -2.317095E+001 -5.532150E+001 -4.821901E-001 -1.610613E+002 -8.828281E+001  1.608501E+002
              -4.810087E-001 -1.610487E+002 -2.189743E+001 -9.718079E+001 -8.858385E+001  1.761749E+002
              -8.718251E+001 -1.606094E+002 -8.690797E+001 -1.591621E+002 -3.408679E-002 -1.810968E+001
  54.0000     -2.250187E+001 -6.340323E+001 -4.973034E-001 -1.646923E+002 -9.111770E+001  1.668265E+002
              -4.969768E-001 -1.646747E+002 -2.134179E+001 -9.626628E+001 -9.025739E+001  1.751981E+002
              -9.089571E+001  1.628611E+002 -9.164519E+001 -1.799947E+002 -3.541356E-002 -1.844923E+001
  55.0000     -2.171452E+001 -7.147025E+001 -5.124758E-001 -1.683753E+002 -8.703706E+001 -1.632259E+002
              -5.124158E-001 -1.683749E+002 -2.066757E+001 -9.539172E+001 -9.043455E+001 -1.732407E+002
              -8.943374E+001  1.490667E+002 -8.913918E+001  1.506100E+002 -3.316974E-002 -1.880054E+001
  56.0000     -2.084889E+001 -7.939552E+001 -5.305766E-001 -1.721310E+002 -8.795152E+001  1.633172E+002
              -5.317425E-001 -1.721216E+002 -1.989416E+001 -9.483211E+001 -8.631708E+001 -1.748981E+002
              -8.626741E+001  1.662286E+002 -8.875546E+001 -1.693483E+002 -3.414354E-002 -1.914503E+001
  57.0000     -1.991112E+001 -8.707218E+001 -5.544965E-001 -1.759276E+002 -8.622514E+001  1.567041E+002
              -5.541562E-001 -1.759123E+002 -1.905072E+001 -9.459846E+001 -8.738940E+001  1.571192E+002
              -8.588025E+001  1.545290E+002 -8.695439E+001 -1.777380E+002 -3.398466E-002 -1.948459E+001
  58.0000     -1.892251E+001 -9.451241E+001 -5.775034E-001 -1.798088E+002 -8.573737E+001  1.509354E+002
              -5.809544E-001 -1.798024E+002 -1.814488E+001 -9.482401E+001 -8.655468E+001 -1.740489E+002
              -8.577994E+001  1.463364E+002 -8.780748E+001  1.773462E+002 -3.438971E-002 -1.982817E+001
  59.0000     -1.790205E+001 -1.015462E+002 -6.102220E-001  1.762536E+002 -8.752686E+001  1.419249E+002
              -6.089467E-001  1.762515E+002 -1.720402E+001 -9.550038E+001 -8.672638E+001 -1.754226E+002
              -8.497488E+001  1.505406E+002 -8.475475E+001  1.725807E+002 -3.431739E-002 -2.017257E+001
  60.0000     -1.686652E+001 -1.083058E+002 -6.458277E-001  1.722154E+002 -8.784736E+001  1.551165E+002
              -6.471053E-001  1.722227E+002 -1.623645E+001 -9.660915E+001 -8.597198E+001 -1.746358E+002
              -8.789056E+001  1.481143E+002 -8.691341E+001  1.763747E+002 -3.388139E-002 -2.051915E+001
  61.0000     -1.583922E+001 -1.147953E+002 -6.880792E-001  1.681151E+002 -8.754931E+001  1.535378E+002
              -6.911200E-001  1.681072E+002 -1.526696E+001 -9.820052E+001 -8.479529E+001 -1.712264E+002
              -8.938100E+001  1.634886E+002 -8.531028E+001 -1.654144E+002 -3.344423E-002 -2.086063E+001
  62.0000     -1.481860E+001 -1.210384E+002 -7.411485E-001  1.639414E+002 -8.552274E+001  1.439013E+002
              -7.421021E-001  1.639507E+002 -1.430448E+001 -1.001953E+002 -8.469407E+001  1.789031E+002
              -8.755524E+001  1.387664E+002 -8.380750E+001 -1.750358E+002 -3.621758E-002 -2.120862E+001
  63.0000     -1.382041E+001 -1.270631E+002 -8.003285E-001  1.596777E+002 -8.686771E+001  1.301574E+002
