! Mini-Circuits						
! S3P DATA File Format						
! Type: Diplexer						
! Model: RDP-50-2R15+						
! PINOUT: Com=PORT1 , LP=PORT2 , HP=PORT3						
! TEST CONDITIONS: INPUT POWER = 0 dBm @ Temperature = +85 deg C					
!						
! All S Parameters are in dB deg format
!
# MHz S dB R 50
!Frequency        S11 dB  S11 DEG   S12 dB  S12 DEG   S13 dB  S13 DEG
!                 S21 dB  S21 DEG   S22 dB  S22 DEG   S23 dB  S23 DEG
!                 S31 dB  S31 DEG   S32 dB  S32 DEG   S33 dB  S33 DEG
   1.0000     -3.530505E+001  1.777467E+001 -2.020582E-001 -2.877380E+000 -9.929143E+001 -5.985918E+001
              -1.996954E-001 -2.945426E+000 -3.546877E+001  1.695032E+001 -1.008390E+002 -7.564310E+001
              -9.777903E+001 -1.132944E+002 -1.037476E+002  1.732350E+002 -4.871583E-002 -3.359395E-001
   2.0000     -3.438186E+001  2.768859E+001 -2.036600E-001 -5.779579E+000 -1.000600E+002 -1.578065E+002
              -1.949441E-001 -5.828809E+000 -3.419623E+001  2.730766E+001 -9.867783E+001 -2.409173E+001
              -1.129885E+002  9.248452E+001 -9.706857E+001  1.789494E+002 -5.032269E-002 -6.712221E-001
   3.0000     -3.301492E+001  3.597699E+001 -2.029755E-001 -8.619894E+000 -1.138720E+002 -1.741987E+002
              -2.029048E-001 -8.672744E+000 -3.292044E+001  3.384781E+001 -1.061435E+002  1.166786E+002
              -1.145503E+002  3.968889E+001 -1.127517E+002 -1.399799E+002 -5.090499E-002 -1.001456E+000
   4.0000     -3.161636E+001  4.140456E+001 -2.052712E-001 -1.150183E+001 -9.552711E+001  1.646915E+000
              -2.041357E-001 -1.152275E+001 -3.151772E+001  3.930129E+001 -1.138297E+002 -6.636928E+001
              -1.199873E+002  5.988043E+001 -1.079503E+002 -1.049429E+002 -4.796439E-002 -1.337635E+000
   5.0000     -3.040857E+001  4.431949E+001 -2.062943E-001 -1.438012E+001 -9.610773E+001  1.070736E+002
              -2.073564E-001 -1.440642E+001 -3.022433E+001  4.112112E+001 -1.146735E+002 -1.641160E+002
              -9.946421E+001  4.179816E+001 -1.092714E+002  1.695329E+002 -4.680577E-002 -1.675017E+000
   6.0000     -2.936110E+001  4.597247E+001 -2.111388E-001 -1.723917E+001 -9.993269E+001  1.733920E+002
              -2.126128E-001 -1.727480E+001 -2.910280E+001  4.211755E+001 -9.954827E+001  8.179925E+001
              -1.043484E+002  1.925748E+001 -1.113647E+002 -9.626028E+001 -4.563197E-002 -2.011096E+000
   7.0000     -2.838349E+001  4.661992E+001 -2.148803E-001 -2.010582E+001 -1.137234E+002 -4.069983E+000
              -2.161876E-001 -2.012474E+001 -2.811248E+001  4.184728E+001 -1.080941E+002  1.021930E+001
              -1.101786E+002 -1.983517E+001 -1.031843E+002  1.467842E+002 -4.476830E-002 -2.339105E+000
   8.0000     -2.750361E+001  4.630335E+001 -2.208172E-001 -2.297545E+001 -1.008918E+002 -2.777373E+000
              -2.199033E-001 -2.299149E+001 -2.722190E+001  4.073546E+001 -1.061438E+002  1.339185E+002
              -1.098016E+002 -3.981654E+001 -1.017219E+002  2.590853E+001 -4.444854E-002 -2.667538E+000
   9.0000     -2.671917E+001  4.538595E+001 -2.261083E-001 -2.584382E+001 -9.972513E+001  9.999437E+000
              -2.260858E-001 -2.585510E+001 -2.640429E+001  3.890195E+001 -9.904771E+001  1.178647E+002
              -1.040393E+002 -1.007331E+002 -1.031200E+002 -1.392429E+002 -4.482359E-002 -3.017097E+000
  10.0000     -2.603030E+001  4.397755E+001 -2.315862E-001 -2.871304E+001 -1.042505E+002 -1.380833E+002
              -2.307462E-001 -2.872732E+001 -2.567766E+001  3.673564E+001 -1.045451E+002 -6.806244E+000
              -1.030897E+002  7.468864E+001 -1.023270E+002  1.324988E+002 -4.348039E-002 -3.339445E+000
  11.0000     -2.543554E+001  4.249549E+001 -2.349063E-001 -3.158251E+001 -9.793383E+001 -1.243080E+002
              -2.379974E-001 -3.159631E+001 -2.506827E+001  3.437088E+001 -1.046877E+002 -1.347318E+002
              -9.829107E+001 -6.954732E+001 -1.070844E+002 -1.328332E+002 -4.182148E-002 -3.664156E+000
  12.0000     -2.495620E+001  4.110555E+001 -2.422057E-001 -3.444762E+001 -9.600513E+001 -1.208964E+002
              -2.433511E-001 -3.445026E+001 -2.453311E+001  3.193692E+001 -9.962265E+001  1.690820E+002
              -1.004928E+002  5.126539E+001 -9.979206E+001  1.085822E+002 -4.345578E-002 -4.000382E+000
  13.0000     -2.455624E+001  3.955827E+001 -2.499301E-001 -3.732772E+001 -9.525132E+001 -7.054900E+001
              -2.496042E-001 -3.732413E+001 -2.407787E+001  2.927671E+001 -1.058015E+002 -1.215443E+002
              -1.009111E+002 -6.884428E+001 -1.010667E+002 -1.603513E+002 -4.071559E-002 -4.337162E+000
  14.0000     -2.419670E+001  3.810823E+001 -2.553191E-001 -4.018589E+001 -9.561165E+001  4.651721E+001
              -2.543208E-001 -4.019961E+001 -2.369523E+001  2.653491E+001 -1.012793E+002  1.339741E+002
              -1.054765E+002 -8.252489E+001 -1.079052E+002  1.164264E+002 -3.921311E-002 -4.666583E+000
  15.0000     -2.390975E+001  3.648870E+001 -2.607825E-001 -4.307272E+001 -1.001040E+002  6.804390E+001
              -2.609619E-001 -4.309061E+001 -2.332892E+001  2.357918E+001 -1.136130E+002  1.035313E+002
              -1.023592E+002 -6.838969E+001 -9.503531E+001  9.480052E+001 -4.051187E-002 -5.014590E+000
  16.0000     -2.360486E+001  3.496057E+001 -2.665254E-001 -4.593510E+001 -1.001911E+002  8.315177E+001
              -2.666316E-001 -4.595345E+001 -2.301387E+001  2.071021E+001 -1.003506E+002  1.593641E+001
              -1.000398E+002 -1.797487E+002 -1.006520E+002 -3.114674E+001 -4.059183E-002 -5.336270E+000
  17.0000     -2.334944E+001  3.324440E+001 -2.726707E-001 -4.881488E+001 -1.080820E+002 -1.049756E+002
              -2.727275E-001 -4.883282E+001 -2.274973E+001  1.771584E+001 -1.160793E+002 -5.420522E+001
              -9.611411E+001  2.437050E+001 -1.052056E+002 -1.166935E+002 -4.010604E-002 -5.684169E+000
  18.0000     -2.312779E+001  3.157346E+001 -2.773179E-001 -5.170498E+001 -1.035493E+002  3.066019E+000
              -2.777867E-001 -5.171378E+001 -2.250597E+001  1.456154E+001 -1.015992E+002  1.428771E+002
              -1.078200E+002  6.747903E+001 -9.663277E+001  1.014836E+002 -3.966181E-002 -6.011131E+000
  19.0000     -2.296219E+001  2.989026E+001 -2.841443E-001 -5.459400E+001 -1.092669E+002  5.312409E+000
              -2.846535E-001 -5.459661E+001 -2.229306E+001  1.134547E+001 -1.058662E+002  1.304219E+002
              -1.001663E+002 -8.578271E+000 -1.098847E+002  4.858279E+001 -3.903402E-002 -6.338678E+000
  20.0000     -2.282023E+001  2.815813E+001 -2.897624E-001 -5.748290E+001 -9.713489E+001 -7.255451E+001
              -2.897078E-001 -5.748505E+001 -2.211857E+001  8.064308E+000 -9.942616E+001  1.353611E+002
              -1.163274E+002 -7.897530E+001 -1.010204E+002  9.629145E+001 -3.869887E-002 -6.677407E+000
  21.0000     -2.270305E+001  2.642562E+001 -2.935500E-001 -6.037497E+001 -1.170029E+002 -1.655844E+002
              -2.957883E-001 -6.037986E+001 -2.198375E+001  4.719514E+000 -1.082062E+002  1.145321E+002
              -9.990988E+001 -1.402106E+002 -1.069600E+002 -6.243474E+001 -3.737660E-002 -7.009426E+000
  22.0000     -2.262881E+001  2.465451E+001 -2.986909E-001 -6.329475E+001 -1.033395E+002 -9.142818E+001
              -3.010464E-001 -6.329828E+001 -2.189577E+001  1.151974E+000 -1.062140E+002  1.657945E+002
              -1.014006E+002 -3.387963E+001 -1.088215E+002  3.542228E+001 -3.725124E-002 -7.352525E+000
  23.0000     -2.263353E+001  2.300162E+001 -3.055956E-001 -6.620888E+001 -1.086381E+002 -2.033006E+001
              -3.059224E-001 -6.621578E+001 -2.180429E+001 -2.428733E+000 -1.028751E+002 -1.450018E+002
              -1.156959E+002 -1.082082E+001 -1.022831E+002  1.672543E+002 -3.676741E-002 -7.682724E+000
  24.0000     -2.262405E+001  2.124358E+001 -3.111497E-001 -6.913103E+001 -9.865253E+001 -9.452647E+001
              -3.112279E-001 -6.913214E+001 -2.176310E+001 -6.174663E+000 -1.000551E+002  1.149960E+002
              -9.983186E+001 -7.869270E+001 -9.473778E+001  4.388108E+001 -3.767132E-002 -8.007863E+000
  25.0000     -2.265977E+001  1.953587E+001 -3.148128E-001 -7.205949E+001 -9.585559E+001 -8.710679E+001
              -3.177435E-001 -7.206457E+001 -2.174759E+001 -1.002269E+001 -9.861470E+001  1.005966E+001
              -1.024006E+002  7.111692E+001 -1.025962E+002 -1.672070E+002 -3.649750E-002 -8.345664E+000
  26.0000     -2.273812E+001  1.794923E+001 -3.201172E-001 -7.499583E+001 -1.053931E+002 -8.877776E+001
              -3.235285E-001 -7.499866E+001 -2.175617E+001 -1.401014E+001 -9.598225E+001  1.757777E+002
              -9.587366E+001 -1.236696E+002 -9.887253E+001  1.435942E+002 -3.900653E-002 -8.684592E+000
  27.0000     -2.284316E+001  1.654461E+001 -3.266089E-001 -7.795750E+001 -9.929876E+001 -1.654651E+002
              -3.256333E-001 -7.796405E+001 -2.178430E+001 -1.799828E+001 -1.010420E+002  1.788864E+002
              -1.008624E+002 -1.379638E+002 -9.631853E+001  1.029298E+002 -3.774155E-002 -9.023064E+000
  28.0000     -2.296830E+001  1.502798E+001 -3.309252E-001 -8.091447E+001 -9.915655E+001 -1.025394E+002
              -3.314111E-001 -8.092735E+001 -2.183032E+001 -2.213784E+001 -1.020934E+002  1.597472E+002
              -9.969954E+001 -1.024688E+002 -1.002971E+002  1.330232E+002 -3.734606E-002 -9.354459E+000
  29.0000     -2.311413E+001  1.379062E+001 -3.367806E-001 -8.388960E+001 -9.585995E+001 -1.092055E+002
              -3.371001E-001 -8.390191E+001 -2.188765E+001 -2.631430E+001 -9.866434E+001 -1.612257E+002
              -1.047194E+002 -1.076889E+002 -9.301578E+001 -1.603560E+002 -3.578607E-002 -9.696734E+000
  30.0000     -2.328990E+001  1.246513E+001 -3.416001E-001 -8.688063E+001 -9.711581E+001 -1.123170E+002
              -3.413344E-001 -8.688184E+001 -2.199215E+001 -3.069688E+001 -1.075630E+002  1.574162E+002
              -1.064438E+002 -1.093735E+002 -9.716774E+001 -1.692944E+002 -3.570084E-002 -1.002050E+001
  31.0000     -2.344869E+001  1.138290E+001 -3.475244E-001 -8.987905E+001 -9.578174E+001 -1.267610E+002
              -3.487388E-001 -8.988999E+001 -2.207116E+001 -3.498419E+001 -9.823492E+001  1.610927E+002
              -9.938946E+001 -3.474329E+001 -9.452357E+001 -1.730119E+002 -3.672984E-002 -1.035625E+001
  32.0000     -2.364665E+001  1.016857E+001 -3.517923E-001 -9.289940E+001 -9.827999E+001 -1.106047E+002
              -3.522674E-001 -9.290774E+001 -2.217608E+001 -3.957608E+001 -9.524268E+001  1.661019E+002
              -9.894646E+001 -1.697726E+002 -9.505957E+001 -1.201016E+002 -3.595686E-002 -1.070215E+001
  33.0000     -2.385312E+001  9.340369E+000 -3.564892E-001 -9.594324E+001 -1.003580E+002  1.078682E+002
              -3.585668E-001 -9.594012E+001 -2.229760E+001 -4.415054E+001 -1.021468E+002 -1.608207E+002
              -9.836607E+001 -1.076859E+002 -9.592181E+001  1.393484E+002 -3.455396E-002 -1.103407E+001
  34.0000     -2.408618E+001  8.311818E+000 -3.641100E-001 -9.897646E+001 -9.615705E+001 -6.822115E+001
              -3.631688E-001 -9.898225E+001 -2.240113E+001 -4.869450E+001 -9.309681E+001  1.596326E+002
              -9.390318E+001 -1.223307E+002 -1.118905E+002  1.544394E+002 -3.576374E-002 -1.136291E+001
  35.0000     -2.428739E+001  7.556449E+000 -3.690971E-001 -1.020498E+002 -8.953369E+001 -1.325832E+002
              -3.698766E-001 -1.020321E+002 -2.254429E+001 -5.349179E+001 -9.499328E+001 -1.549156E+002
              -1.002971E+002  1.777077E+002 -9.289244E+001  1.437811E+002 -3.616820E-002 -1.170615E+001
  36.0000     -2.451983E+001  6.728709E+000 -3.728488E-001 -1.051249E+002 -9.236346E+001 -1.458093E+002
              -3.754886E-001 -1.051223E+002 -2.265252E+001 -5.815144E+001 -9.286638E+001  1.664477E+002
              -1.015172E+002  1.679773E+002 -9.229063E+001  1.741998E+002 -3.554326E-002 -1.203913E+001
  37.0000     -2.473590E+001  5.963434E+000 -3.796098E-001 -1.082244E+002 -9.661226E+001 -1.708340E+002
              -3.801994E-001 -1.082143E+002 -2.278291E+001 -6.288189E+001 -9.177054E+001  1.338829E+002
              -1.079353E+002 -1.410562E+002 -9.295908E+001  1.627227E+002 -3.272681E-002 -1.237012E+001
  38.0000     -2.491790E+001  5.229111E+000 -3.868011E-001 -1.113383E+002 -9.432967E+001 -1.713456E+002
              -3.876178E-001 -1.113346E+002 -2.291745E+001 -6.744574E+001 -9.290444E+001 -1.710762E+002
              -1.005306E+002 -1.034014E+002 -9.369240E+001 -1.542555E+002 -3.421772E-002 -1.271744E+001
  39.0000     -2.511841E+001  4.327181E+000 -3.915502E-001 -1.144731E+002 -9.156619E+001 -1.278486E+002
              -3.926194E-001 -1.144762E+002 -2.304191E+001 -7.200457E+001 -9.137363E+001  1.635887E+002
              -9.445534E+001 -1.547829E+002 -9.580011E+001 -1.458236E+002 -3.327021E-002 -1.304139E+001
  40.0000     -2.528089E+001  3.702936E+000 -4.000317E-001 -1.176356E+002 -1.041970E+002 -3.446103E+001
              -3.981322E-001 -1.176272E+002 -2.315352E+001 -7.647647E+001 -9.254767E+001 -1.515663E+002
              -9.804695E+001 -1.768717E+002 -1.083396E+002  1.431247E+002 -3.225974E-002 -1.338361E+001
  41.0000     -2.543530E+001  2.379811E+000 -4.059709E-001 -1.208115E+002 -9.399126E+001 -1.318239E+002
              -4.069151E-001 -1.208090E+002 -2.326792E+001 -8.085795E+001 -9.885638E+001  1.578573E+002
              -9.320518E+001 -1.572324E+002 -9.076074E+001 -1.597135E+002 -3.211202E-002 -1.372096E+001
  42.0000     -2.554668E+001  9.868966E-001 -4.129536E-001 -1.240096E+002 -9.132571E+001 -1.380971E+002
              -4.142240E-001 -1.240007E+002 -2.336698E+001 -8.481754E+001 -9.087092E+001  1.667768E+002
              -9.456248E+001 -1.663405E+002 -9.907931E+001 -1.410754E+002 -3.293844E-002 -1.405247E+001
  43.0000     -2.562370E+001 -7.609696E-001 -4.208718E-001 -1.272371E+002 -1.003687E+002  1.478000E+002
              -4.202310E-001 -1.272395E+002 -2.347582E+001 -8.860344E+001 -9.033311E+001 -1.721099E+002
              -9.233294E+001 -1.384656E+002 -9.546715E+001 -1.642115E+002 -3.385062E-002 -1.439461E+001
  44.0000     -2.569301E+001 -2.904410E+000 -4.290603E-001 -1.304816E+002 -8.816148E+001 -1.521472E+002
              -4.283662E-001 -1.304821E+002 -2.354592E+001 -9.194209E+001 -9.023190E+001 -1.757636E+002
              -9.334117E+001 -1.148977E+002 -9.108987E+001 -1.789139E+002 -3.380752E-002 -1.474183E+001
  45.0000     -2.572411E+001 -5.759954E+000 -4.365844E-001 -1.337602E+002 -9.657184E+001 -1.742587E+002
              -4.370308E-001 -1.337695E+002 -2.362766E+001 -9.516406E+001 -9.741833E+001  1.566266E+002
              -9.039881E+001 -1.530337E+002 -8.813496E+001 -1.603480E+002 -3.384509E-002 -1.507768E+001
  46.0000     -2.571460E+001 -9.140307E+000 -4.445660E-001 -1.370783E+002 -9.267323E+001 -1.585327E+002
              -4.450899E-001 -1.370794E+002 -2.367293E+001 -9.750381E+001 -8.772749E+001  1.630426E+002
              -8.779218E+001 -1.446468E+002 -9.027365E+001 -1.483524E+002 -3.337225E-002 -1.541436E+001
  47.0000     -2.569343E+001 -1.330580E+001 -4.527082E-001 -1.404137E+002 -9.285966E+001 -1.600618E+002
              -4.536287E-001 -1.404179E+002 -2.365748E+001 -9.959216E+001 -9.135264E+001  1.579460E+002
              -8.880073E+001 -1.660038E+002 -9.195431E+001  1.637531E+002 -3.346633E-002 -1.574623E+001
  48.0000     -2.559586E+001 -1.813076E+001 -4.613703E-001 -1.437946E+002 -8.861674E+001 -1.374003E+002
              -4.623424E-001 -1.437781E+002 -2.364821E+001 -1.010615E+002 -9.163666E+001 -1.661518E+002
              -8.815029E+001  1.769521E+002 -9.305625E+001  1.643065E+002 -3.200560E-002 -1.608403E+001
  49.0000     -2.543028E+001 -2.389607E+001 -4.717019E-001 -1.471941E+002 -8.792769E+001 -1.557857E+002
              -4.704182E-001 -1.471987E+002 -2.356561E+001 -1.018837E+002 -9.059046E+001 -1.638308E+002
              -9.441273E+001  1.653126E+002 -8.943777E+001  1.548127E+002 -3.518967E-002 -1.643002E+001
  50.0000     -2.520650E+001 -3.035166E+001 -4.819225E-001 -1.506547E+002 -9.206223E+001  1.659293E+002
              -4.829529E-001 -1.506533E+002 -2.342855E+001 -1.021024E+002 -9.039590E+001  1.620892E+002
              -8.795605E+001 -1.564769E+002 -9.123692E+001 -1.782133E+002 -3.389177E-002 -1.676813E+001
  51.0000     -2.485363E+001 -3.761696E+001 -4.932420E-001 -1.541478E+002 -8.829526E+001 -1.738313E+002
              -4.925305E-001 -1.541546E+002 -2.318607E+001 -1.017958E+002 -9.145338E+001  1.659722E+002
              -8.915871E+001 -1.600817E+002 -8.931435E+001  1.638548E+002 -3.455314E-002 -1.711069E+001
  52.0000     -2.441175E+001 -4.550262E+001 -5.066704E-001 -1.576778E+002 -8.985955E+001 -1.778213E+002
              -5.062125E-001 -1.576785E+002 -2.285429E+001 -1.009580E+002 -8.643593E+001 -1.345991E+002
              -8.778992E+001 -1.763492E+002 -9.082732E+001  1.579570E+002 -3.495910E-002 -1.745255E+001
  53.0000     -2.383758E+001 -5.382146E+001 -5.194642E-001 -1.612715E+002 -8.908700E+001  1.689163E+002
              -5.174773E-001 -1.612633E+002 -2.238190E+001 -9.995066E+001 -9.108376E+001 -1.736549E+002
              -9.214928E+001 -1.790039E+002 -8.678531E+001 -1.787866E+002 -3.438302E-002 -1.778807E+001
  54.0000     -2.312787E+001 -6.228505E+001 -5.349134E-001 -1.649050E+002 -9.352430E+001  1.580150E+002
              -5.329053E-001 -1.648954E+002 -2.180936E+001 -9.877134E+001 -8.928095E+001 -1.626971E+002
              -8.690157E+001  1.647221E+002 -8.811195E+001 -1.797209E+002 -3.557235E-002 -1.813025E+001
  55.0000     -2.229013E+001 -7.072604E+001 -5.515148E-001 -1.686059E+002 -8.771599E+001  1.611401E+002
              -5.507985E-001 -1.686044E+002 -2.110257E+001 -9.762626E+001 -9.010555E+001 -1.710623E+002
              -8.992531E+001  1.655410E+002 -9.050954E+001  1.671875E+002 -3.363381E-002 -1.847441E+001
  56.0000     -2.136468E+001 -7.896353E+001 -5.705013E-001 -1.723657E+002 -8.875544E+001  1.627314E+002
              -5.716098E-001 -1.723666E+002 -2.029403E+001 -9.681233E+001 -8.689117E+001 -1.697882E+002
              -8.605405E+001  1.691977E+002 -8.726345E+001  1.735115E+002 -3.488332E-002 -1.881864E+001
  57.0000     -2.036147E+001 -8.689288E+001 -5.948385E-001 -1.761707E+002 -8.650694E+001  1.634014E+002
              -5.938337E-001 -1.761764E+002 -1.940573E+001 -9.634873E+001 -8.525266E+001  1.787336E+002
              -8.951299E+001 -1.750145E+002 -8.820760E+001 -1.759507E+002 -3.311978E-002 -1.915768E+001
  58.0000     -1.931025E+001 -9.452220E+001 -6.202919E-001  1.799273E+002 -8.774839E+001  1.721134E+002
              -6.215506E-001  1.799327E+002 -1.845447E+001 -9.641862E+001 -8.599895E+001 -1.734137E+002
              -8.800088E+001  1.733432E+002 -8.888393E+001 -1.797402E+002 -3.349141E-002 -1.949900E+001
  59.0000     -1.823289E+001 -1.017085E+002 -6.521481E-001  1.759801E+002 -8.892088E+001  1.542618E+002
              -6.516051E-001  1.759632E+002 -1.746664E+001 -9.695647E+001 -8.570970E+001  1.732252E+002
              -8.866990E+001  1.636823E+002 -8.506310E+001 -1.780334E+002 -3.480294E-002 -1.984491E+001
  60.0000     -1.714061E+001 -1.085741E+002 -6.898761E-001  1.719306E+002 -8.902136E+001  1.669456E+002
              -6.913497E-001  1.719197E+002 -1.645665E+001 -9.796150E+001 -8.652321E+001 -1.770872E+002
              -8.833690E+001  1.575349E+002 -8.574762E+001 -1.789479E+002 -3.423665E-002 -2.019389E+001
  61.0000     -1.606123E+001 -1.151465E+002 -7.355164E-001  1.678080E+002 -8.704993E+001  1.406997E+002
              -7.350087E-001  1.677922E+002 -1.544705E+001 -9.949520E+001 -8.586342E+001 -1.781524E+002
              -8.591354E+001  1.380260E+002 -8.389336E+001 -1.669150E+002 -3.426315E-002 -2.053265E+001
  62.0000     -1.499597E+001 -1.214363E+002 -7.894849E-001  1.636126E+002 -8.338847E+001  1.338563E+002
              -7.876657E-001  1.636126E+002 -1.444825E+001 -1.014484E+002 -8.436927E+001 -1.760212E+002
              -8.747218E+001  1.318793E+002 -8.461919E+001 -1.656070E+002 -3.435269E-002 -2.088366E+001
  63.0000     -1.396040E+001 -1.275181E+002 -8.508912E-001  1.593270E+002 -8.412681E+001  1.412617E+002
