! Mini-Circuits						
! S3P DATA File Format						
! Type: Diplexer						
! Model: RDP-50-2R15+						
! PINOUT: Com=PORT1 , LP=PORT2 , HP=PORT3						
! TEST CONDITIONS: INPUT POWER = 0 dBm @ Temperature = -40 deg C					
!						
! All S Parameters are in dB deg format
!
# MHz S dB R 50
!Frequency        S11 dB  S11 DEG   S12 dB  S12 DEG   S13 dB  S13 DEG
!                 S21 dB  S21 DEG   S22 dB  S22 DEG   S23 dB  S23 DEG
!                 S31 dB  S31 DEG   S32 dB  S32 DEG   S33 dB  S33 DEG
   1.0000     -3.923260E+001  2.773505E+001 -1.395017E-001 -2.882222E+000 -9.816407E+001 -1.010372E+002
              -1.381225E-001 -2.949479E+000 -3.950954E+001  2.673435E+001 -1.016079E+002 -5.733609E+001
              -1.096068E+002  1.642015E+002 -1.088205E+002  7.741742E+000 -5.006869E-002 -3.452518E-001
   2.0000     -3.747493E+001  4.038133E+001 -1.435357E-001 -5.774701E+000 -9.664868E+001 -3.388046E+001
              -1.311632E-001 -5.843365E+000 -3.718801E+001  3.928022E+001 -1.007131E+002  3.839499E+001
              -9.529589E+001  1.530591E+002 -1.003399E+002  1.169421E+002 -5.089617E-002 -7.014664E-001
   3.0000     -3.532161E+001  4.876307E+001 -1.418156E-001 -8.622152E+000 -1.030599E+002  1.563237E+002
              -1.393907E-001 -8.676907E+000 -3.523196E+001  4.519580E+001 -1.039636E+002  1.403248E+002
              -1.131755E+002  1.258975E+002 -9.531839E+001  4.843579E+000 -5.164585E-002 -1.050944E+000
   4.0000     -3.340046E+001  5.293467E+001 -1.452011E-001 -1.149784E+001 -1.007574E+002  3.990065E+001
              -1.411007E-001 -1.152957E+001 -3.331211E+001  4.953917E+001 -1.036346E+002 -5.621506E-001
              -1.004036E+002  6.994360E+001 -9.838617E+001 -1.568996E+002 -4.849146E-002 -1.405286E+000
   5.0000     -3.190655E+001  5.465201E+001 -1.468185E-001 -1.436704E+001 -9.674382E+001  9.887599E+001
              -1.468097E-001 -1.441148E+001 -3.172809E+001  4.966424E+001 -9.717844E+001 -1.210587E+002
              -1.044802E+002 -1.018145E+002 -9.547250E+001  1.284953E+002 -4.773359E-002 -1.760762E+000
   6.0000     -3.066343E+001  5.521836E+001 -1.526278E-001 -1.722767E+001 -1.005015E+002  1.704537E+002
              -1.503542E-001 -1.727641E+001 -3.041902E+001  4.932110E+001 -1.081668E+002  3.282448E+000
              -1.030981E+002 -4.328233E+001 -1.009612E+002 -2.813311E+001 -4.680695E-002 -2.108122E+000
   7.0000     -2.955550E+001  5.491038E+001 -1.579102E-001 -2.008511E+001 -1.012010E+002  8.368755E+001
              -1.561774E-001 -2.013933E+001 -2.930875E+001  4.787591E+001 -1.011810E+002  1.304724E+002
              -1.051823E+002 -1.664574E+002 -1.061853E+002  5.115778E+001 -4.613073E-002 -2.460598E+000
   8.0000     -2.859987E+001  5.377917E+001 -1.633141E-001 -2.296527E+001 -1.090751E+002 -1.377809E+002
              -1.593637E-001 -2.298670E+001 -2.833896E+001  4.568156E+001 -1.038126E+002 -1.678221E+002
              -1.036720E+002 -9.592799E+000 -9.981819E+001 -1.203574E+002 -4.605230E-002 -2.804415E+000
   9.0000     -2.775947E+001  5.218928E+001 -1.693583E-001 -2.582082E+001 -1.010949E+002  1.520210E+002
              -1.658727E-001 -2.585729E+001 -2.745425E+001  4.294383E+001 -1.059335E+002  1.313951E+002
              -1.015390E+002 -1.178859E+002 -1.009111E+002 -1.535135E+002 -4.529352E-002 -3.173240E+000
  10.0000     -2.702655E+001  5.026249E+001 -1.749264E-001 -2.867496E+001 -9.387852E+001  1.737190E+001
              -1.714928E-001 -2.869812E+001 -2.667961E+001  4.000092E+001 -1.101326E+002  3.609998E+000
              -1.024358E+002 -3.988378E+000 -1.007181E+002 -1.736675E+002 -4.426283E-002 -3.518063E+000
  11.0000     -2.640199E+001  4.839899E+001 -1.810198E-001 -3.154416E+001 -9.686314E+001 -6.695728E+001
              -1.792741E-001 -3.156758E+001 -2.603298E+001  3.698190E+001 -1.008881E+002  1.503664E+002
              -9.315384E+001  4.259492E+001 -9.836356E+001  1.267121E+002 -4.174189E-002 -3.864067E+000
  12.0000     -2.590208E+001  4.677179E+001 -1.876910E-001 -3.439712E+001 -1.086367E+002  5.787038E+001
              -1.847723E-001 -3.441965E+001 -2.546510E+001  3.400445E+001 -1.030619E+002  1.700183E+002
              -9.920953E+001  9.139926E+001 -1.005624E+002  1.121303E+002 -4.350564E-002 -4.210570E+000
  13.0000     -2.547511E+001  4.505423E+001 -1.937809E-001 -3.726791E+001 -1.192287E+002 -2.894090E+001
              -1.902406E-001 -3.728455E+001 -2.497943E+001  3.086637E+001 -9.833755E+001  1.325164E+002
              -9.708316E+001 -1.299217E+002 -1.090900E+002 -1.510444E+002 -4.095525E-002 -4.583662E+000
  14.0000     -2.509332E+001  4.352780E+001 -2.013676E-001 -4.011991E+001 -1.005745E+002  7.288969E+001
              -1.964780E-001 -4.014625E+001 -2.457283E+001  2.771935E+001 -1.045224E+002  3.148097E+001
              -1.007779E+002 -4.020699E+001 -9.443085E+001 -1.164689E+002 -3.939793E-002 -4.920024E+000
  15.0000     -2.477932E+001  4.185710E+001 -2.051665E-001 -4.298998E+001 -9.542195E+001 -5.671859E+001
              -2.000441E-001 -4.302630E+001 -2.417439E+001  2.442951E+001 -1.071327E+002 -1.414135E+002
              -1.082971E+002 -3.453420E-001 -1.035194E+002  4.859258E+000 -4.059035E-002 -5.271383E+000
  16.0000     -2.444062E+001  4.029106E+001 -2.108977E-001 -4.585072E+001 -1.021140E+002 -1.332539E+000
              -2.074524E-001 -4.588088E+001 -2.382430E+001  2.124833E+001 -9.614339E+001 -1.574254E+002
              -9.578278E+001 -1.419077E+002 -1.009862E+002  1.377222E+002 -3.984559E-002 -5.620129E+000
  17.0000     -2.415071E+001  3.855045E+001 -2.173279E-001 -4.872137E+001 -9.951497E+001 -1.398794E+002
              -2.125964E-001 -4.875515E+001 -2.353263E+001  1.799751E+001 -1.121843E+002 -7.448110E+001
              -1.061577E+002 -5.905330E+001 -9.852992E+001  1.512157E+002 -3.984416E-002 -5.977408E+000
  18.0000     -2.389023E+001  3.687238E+001 -2.211948E-001 -5.160796E+001 -1.069041E+002 -1.688045E+002
              -2.176031E-001 -5.162566E+001 -2.325201E+001  1.458210E+001 -1.045953E+002  7.762334E+001
              -1.078715E+002  1.129164E+001 -1.035214E+002 -1.404555E+002 -4.022161E-002 -6.333620E+000
  19.0000     -2.368368E+001  3.519379E+001 -2.265718E-001 -5.448641E+001 -9.560328E+001 -9.696879E+001
              -2.243643E-001 -5.451108E+001 -2.299689E+001  1.117429E+001 -1.047263E+002  1.348366E+002
              -9.376548E+001 -2.424907E+001 -1.013241E+002  1.510922E+002 -3.783503E-002 -6.667394E+000
  20.0000     -2.349574E+001  3.349701E+001 -2.325197E-001 -5.736721E+001 -9.745100E+001 -6.252711E+000
              -2.295988E-001 -5.738759E+001 -2.278177E+001  7.721759E+000 -1.025451E+002 -1.114345E+002
              -9.865464E+001 -7.034138E+001 -9.988751E+001 -1.558229E+002 -3.810657E-002 -7.023938E+000
  21.0000     -2.332828E+001  3.179188E+001 -2.366366E-001 -6.025822E+001 -9.861784E+001  1.756271E+002
              -2.351661E-001 -6.027336E+001 -2.260034E+001  4.205888E+000 -9.356787E+001 -1.561051E+002
              -1.025858E+002 -3.659327E+001 -9.979427E+001  1.333654E+002 -3.822841E-002 -7.370131E+000
  22.0000     -2.320014E+001  3.004396E+001 -2.411778E-001 -6.316426E+001 -1.036385E+002  4.093579E+001
              -2.398243E-001 -6.318734E+001 -2.246412E+001  5.131769E-001 -9.850541E+001  1.266534E+002
              -1.019430E+002  1.039336E+002 -1.040811E+002  1.678192E+002 -3.600513E-002 -7.737431E+000
  23.0000     -2.314937E+001  2.844740E+001 -2.470457E-001 -6.607207E+001 -9.812775E+001 -1.961742E+001
              -2.447098E-001 -6.608872E+001 -2.231871E+001 -3.168120E+000 -9.715956E+001  1.692340E+002
              -1.045536E+002  1.593716E+002 -1.098503E+002  3.500105E+001 -3.685265E-002 -8.074125E+000
  24.0000     -2.307620E+001  2.669594E+001 -2.517315E-001 -6.897330E+001 -9.742941E+001 -1.483204E+002
              -2.488222E-001 -6.900146E+001 -2.222620E+001 -6.983652E+000 -9.940014E+001 -1.613508E+002
              -9.613213E+001  4.305639E+000 -1.045266E+002 -6.002790E+001 -3.737631E-002 -8.415528E+000
  25.0000     -2.304693E+001  2.500650E+001 -2.558370E-001 -7.190334E+001 -9.534383E+001 -6.794035E+001
              -2.550224E-001 -7.191456E+001 -2.215126E+001 -1.088012E+001 -1.003641E+002 -1.402818E+002
              -9.461419E+001 -4.697467E+001 -9.769382E+001  1.569924E+002 -3.718073E-002 -8.775428E+000
  26.0000     -2.304885E+001  2.341581E+001 -2.618535E-001 -7.482954E+001 -1.047031E+002 -1.144100E+002
              -2.605409E-001 -7.485835E+001 -2.209803E+001 -1.487932E+001 -1.137744E+002  1.188703E+002
              -1.002185E+002 -1.353012E+002 -9.718084E+001 -1.248969E+002 -3.725874E-002 -9.125908E+000
  27.0000     -2.307551E+001  2.199943E+001 -2.657238E-001 -7.778737E+001 -9.290327E+001 -3.888260E+001
              -2.635012E-001 -7.779823E+001 -2.205846E+001 -1.884714E+001 -1.034559E+002  1.682398E+002
              -1.015192E+002 -1.142412E+002 -9.440438E+001  1.583051E+002 -3.597273E-002 -9.480533E+000
  28.0000     -2.311363E+001  2.043549E+001 -2.703334E-001 -8.074173E+001 -9.314764E+001 -1.273902E+002
              -2.682870E-001 -8.075198E+001 -2.204064E+001 -2.292028E+001 -9.474293E+001  1.469866E+002
              -1.137602E+002 -1.307560E+002 -9.474545E+001  1.798809E+002 -3.551975E-002 -9.829015E+000
  29.0000     -2.316485E+001  1.910002E+001 -2.746627E-001 -8.369360E+001 -9.559416E+001 -1.150301E+002
              -2.731763E-001 -8.371959E+001 -2.202152E+001 -2.697330E+001 -9.632224E+001  1.529470E+002
              -9.270715E+001 -1.752629E+002 -1.044760E+002  1.615852E+002 -3.477712E-002 -1.017904E+001
  30.0000     -2.324010E+001  1.763579E+001 -2.794349E-001 -8.668564E+001 -9.605154E+001 -1.292877E+002
              -2.757177E-001 -8.668725E+001 -2.205184E+001 -3.122861E+001 -9.469523E+001 -1.750311E+002
              -1.029032E+002  1.501120E+002 -1.002798E+002 -8.066674E+001 -3.426943E-002 -1.052100E+001
  31.0000     -2.329645E+001  1.630592E+001 -2.848125E-001 -8.967596E+001 -9.291172E+001 -1.424046E+002
              -2.830991E-001 -8.969452E+001 -2.205336E+001 -3.528599E+001 -9.546523E+001 -1.701236E+002
              -9.086920E+001 -1.374102E+002 -1.019506E+002  1.466751E+002 -3.424035E-002 -1.087926E+001
  32.0000     -2.338349E+001  1.485483E+001 -2.887118E-001 -9.268221E+001 -9.328314E+001 -6.110015E+001
              -2.862135E-001 -9.269449E+001 -2.208056E+001 -3.961899E+001 -1.074705E+002  1.693403E+002
              -9.302773E+001 -9.996744E+001 -1.057478E+002 -1.057210E+002 -3.375183E-002 -1.123061E+001
  33.0000     -2.347248E+001  1.368028E+001 -2.937892E-001 -9.570552E+001 -9.557533E+001 -1.392178E+002
              -2.910601E-001 -9.572298E+001 -2.212266E+001 -4.387404E+001 -9.239294E+001 -1.639379E+002
              -9.219227E+001 -1.174208E+002 -1.020942E+002  1.662019E+002 -3.397558E-002 -1.157640E+001
  34.0000     -2.359051E+001  1.222669E+001 -2.988051E-001 -9.874245E+001 -1.023109E+002  1.689972E+002
              -2.954903E-001 -9.875186E+001 -2.214779E+001 -4.805445E+001 -9.277587E+001  1.650975E+002
              -9.535164E+001  1.680599E+002 -9.488050E+001 -1.274250E+002 -3.247243E-002 -1.192027E+001
  35.0000     -2.367169E+001  1.092689E+001 -3.027196E-001 -1.017966E+002 -1.205928E+002 -1.016539E+001
              -2.997165E-001 -1.017989E+002 -2.221320E+001 -5.245122E+001 -9.509830E+001  1.794028E+002
              -9.344779E+001 -1.502915E+002 -9.879005E+001  1.763552E+002 -3.313781E-002 -1.225837E+001
  36.0000     -2.378741E+001  9.509168E+000 -3.060982E-001 -1.048588E+002 -9.949493E+001 -1.285667E+002
              -3.052313E-001 -1.048671E+002 -2.224749E+001 -5.661096E+001 -9.410049E+001  1.643022E+002
              -9.964553E+001  1.752843E+002 -9.618726E+001  1.193463E+002 -3.268379E-002 -1.261830E+001
  37.0000     -2.388452E+001  8.046612E+000 -3.110162E-001 -1.079451E+002 -9.702615E+001 -1.581978E+002
              -3.088387E-001 -1.079485E+002 -2.230381E+001 -6.081997E+001 -9.382784E+001  1.577892E+002
              -9.401349E+001 -1.499725E+002 -9.319598E+001 -1.626399E+002 -3.092776E-002 -1.295230E+001
  38.0000     -2.395791E+001  6.549967E+000 -3.162631E-001 -1.110452E+002 -9.483936E+001 -1.682052E+002
              -3.142054E-001 -1.110568E+002 -2.237081E+001 -6.482449E+001 -9.167781E+001  1.238159E+002
              -9.563056E+001 -1.041359E+002 -9.787495E+001  1.702846E+002 -3.200309E-002 -1.330779E+001
  39.0000     -2.406086E+001  4.836659E+000 -3.222644E-001 -1.141677E+002 -9.449712E+001 -9.683887E+001
              -3.194709E-001 -1.141798E+002 -2.243269E+001 -6.877293E+001 -9.677904E+001  1.465117E+002
              -9.751684E+001 -1.743295E+002 -9.332716E+001 -1.492503E+002 -2.944796E-002 -1.365034E+001
  40.0000     -2.412460E+001  3.266681E+000 -3.271737E-001 -1.173169E+002 -9.596971E+001  1.718911E+002
              -3.234428E-001 -1.173273E+002 -2.248063E+001 -7.262272E+001 -9.162869E+001  1.239426E+002
              -9.805695E+001 -9.393755E+001 -9.313402E+001 -1.444361E+002 -3.059515E-002 -1.400067E+001
  41.0000     -2.419812E+001  1.043063E+000 -3.328761E-001 -1.204738E+002 -9.120667E+001 -1.652226E+002
              -3.295038E-001 -1.204917E+002 -2.254292E+001 -7.638398E+001 -9.698690E+001  1.764452E+002
              -8.864043E+001 -1.415799E+002 -9.394717E+001  1.696182E+002 -3.037455E-002 -1.434856E+001
  42.0000     -2.423954E+001 -1.247859E+000 -3.386026E-001 -1.236688E+002 -9.484026E+001  1.601949E+002
              -3.347221E-001 -1.236745E+002 -2.258908E+001 -7.972653E+001 -1.008467E+002  1.165041E+002
              -9.182528E+001 -1.347162E+002 -9.151803E+001  1.562244E+002 -3.013738E-002 -1.468778E+001
  43.0000     -2.425617E+001 -3.825691E+000 -3.446686E-001 -1.268787E+002 -9.052838E+001  1.694110E+002
              -3.418856E-001 -1.268882E+002 -2.264851E+001 -8.289561E+001 -9.416818E+001 -1.371620E+002
              -1.020652E+002  1.394612E+002 -8.645639E+001 -1.652220E+002 -3.098180E-002 -1.503905E+001
  44.0000     -2.426835E+001 -6.820538E+000 -3.512617E-001 -1.301168E+002 -9.474145E+001 -1.338806E+002
              -3.466461E-001 -1.301284E+002 -2.267108E+001 -8.569161E+001 -9.200687E+001 -1.665816E+002
              -9.122209E+001 -1.740764E+002 -9.077098E+001  1.592240E+002 -3.017529E-002 -1.539010E+001
  45.0000     -2.425174E+001 -1.033461E+001 -3.576064E-001 -1.333838E+002 -9.379208E+001  1.735842E+002
              -3.540375E-001 -1.333926E+002 -2.270564E+001 -8.840381E+001 -9.353123E+001  1.367591E+002
              -9.257764E+001 -1.662462E+002 -8.932108E+001 -1.221513E+002 -2.981187E-002 -1.573587E+001
  46.0000     -2.419905E+001 -1.425630E+001 -3.634178E-001 -1.366817E+002 -9.137682E+001 -1.689892E+002
              -3.606468E-001 -1.366889E+002 -2.270644E+001 -9.037157E+001 -9.063844E+001  1.675778E+002
              -9.251502E+001 -1.662003E+002 -9.226034E+001 -1.575018E+002 -2.954959E-002 -1.607737E+001
  47.0000     -2.413529E+001 -1.878751E+001 -3.704188E-001 -1.400145E+002 -9.038383E+001 -1.622660E+002
              -3.672618E-001 -1.400231E+002 -2.264961E+001 -9.221140E+001 -9.429102E+001 -1.537639E+002
              -8.898069E+001 -1.413569E+002 -9.118600E+001 -1.585010E+002 -2.950314E-002 -1.641917E+001
  48.0000     -2.400275E+001 -2.376984E+001 -3.772412E-001 -1.433694E+002 -9.246130E+001 -1.500998E+002
              -3.743995E-001 -1.433798E+002 -2.259785E+001 -9.351662E+001 -9.257648E+001 -1.414673E+002
              -8.585568E+001 -1.629256E+002 -8.942741E+001 -1.549793E+002 -2.887922E-002 -1.676716E+001
  49.0000     -2.381213E+001 -2.941721E+001 -3.850475E-001 -1.467673E+002 -9.092209E+001 -1.744772E+002
              -3.811520E-001 -1.467737E+002 -2.247385E+001 -9.434480E+001 -9.028477E+001  1.720638E+002
              -9.156582E+001 -1.795677E+002 -8.806167E+001  1.783872E+002 -3.026160E-002 -1.711280E+001
  50.0000     -2.357026E+001 -3.552789E+001 -3.934340E-001 -1.501982E+002 -8.634029E+001 -1.772890E+002
              -3.897927E-001 -1.502043E+002 -2.230210E+001 -9.474774E+001 -8.807516E+001  1.665674E+002
              -9.126388E+001 -1.787896E+002 -8.801218E+001 -1.654433E+002 -2.892779E-002 -1.745393E+001
  51.0000     -2.322886E+001 -4.223062E+001 -4.039749E-001 -1.536714E+002 -9.208883E+001 -1.775683E+002
              -3.993447E-001 -1.536929E+002 -2.204135E+001 -9.480396E+001 -8.895150E+001  1.698033E+002
              -9.040752E+001 -1.572258E+002 -8.657707E+001 -1.796815E+002 -2.977212E-002 -1.779988E+001
  52.0000     -2.281058E+001 -4.933500E+001 -4.142762E-001 -1.571933E+002 -9.081702E+001  1.769548E+002
              -4.099567E-001 -1.571993E+002 -2.170806E+001 -9.448248E+001 -8.608688E+001 -1.683531E+002
              -1.018224E+002  1.688426E+002 -8.593964E+001  1.756436E+002 -2.885926E-002 -1.814379E+001
  53.0000     -2.229846E+001 -5.681427E+001 -4.259041E-001 -1.607660E+002 -8.781210E+001  1.703157E+002
              -4.203983E-001 -1.607714E+002 -2.126066E+001 -9.409184E+001 -8.972181E+001  1.660430E+002
              -8.567161E+001 -1.758998E+002 -9.404121E+001 -1.608656E+002 -2.829824E-002 -1.847750E+001
  54.0000     -2.168153E+001 -6.438974E+001 -4.389913E-001 -1.643685E+002 -8.653312E+001  1.713356E+002
              -4.346299E-001 -1.643821E+002 -2.073802E+001 -9.356506E+001 -8.780582E+001  1.782249E+002
              -8.820859E+001 -1.771260E+002 -8.609074E+001  1.617685E+002 -3.106149E-002 -1.882677E+001
  55.0000     -2.096589E+001 -7.197054E+001 -4.532057E-001 -1.680553E+002 -8.663219E+001  1.796408E+002
              -4.503436E-001 -1.680570E+002 -2.010608E+001 -9.309573E+001 -8.736055E+001 -1.706868E+002
              -9.143736E+001  1.698483E+002 -8.718513E+001  1.747575E+002 -2.727341E-002 -1.916612E+001
  56.0000     -2.018069E+001 -7.949287E+001 -4.713310E-001 -1.717785E+002 -8.840382E+001  1.681335E+002
              -4.674501E-001 -1.718012E+002 -1.939049E+001 -9.287195E+001 -8.766936E+001 -1.668134E+002
              -8.860625E+001  1.753233E+002 -8.415926E+001  1.798274E+002 -2.854040E-002 -1.951623E+001
  57.0000     -1.932816E+001 -8.681719E+001 -4.916142E-001 -1.755685E+002 -8.990521E+001 -1.659140E+002
              -4.884157E-001 -1.755821E+002 -1.860763E+001 -9.291336E+001 -8.755554E+001 -1.738225E+002
              -8.702680E+001  1.639886E+002 -8.687241E+001 -1.713833E+002 -2.823718E-002 -1.984979E+001
  58.0000     -1.842616E+001 -9.399477E+001 -5.142589E-001 -1.794367E+002 -8.681317E+001  1.603317E+002
              -5.118555E-001 -1.794398E+002 -1.776753E+001 -9.333765E+001 -8.720078E+001  1.754016E+002
              -8.670993E+001  1.609484E+002 -8.769834E+001  1.610547E+002 -2.755780E-002 -2.018792E+001
  59.0000     -1.749028E+001 -1.008526E+002 -5.457538E-001  1.766597E+002 -8.497508E+001  1.605575E+002
              -5.383211E-001  1.766280E+002 -1.689150E+001 -9.415395E+001 -8.643295E+001  1.799682E+002
              -8.515881E+001  1.602261E+002 -8.848919E+001 -1.680205E+002 -2.883449E-002 -2.054119E+001
  60.0000     -1.653017E+001 -1.074865E+002 -5.779617E-001  1.726371E+002 -8.671366E+001  1.385470E+002
              -5.754511E-001  1.726204E+002 -1.598440E+001 -9.534641E+001 -8.595600E+001 -1.675269E+002
              -8.512578E+001  1.601539E+002 -8.720880E+001  1.745127E+002 -2.667749E-002 -2.088619E+001
  61.0000     -1.556938E+001 -1.138827E+002 -6.176657E-001  1.685593E+002 -8.638132E+001  1.410720E+002
              -6.148320E-001  1.685463E+002 -1.506990E+001 -9.698762E+001 -8.698892E+001  1.783476E+002
              -8.616106E+001  1.355751E+002 -8.217744E+001 -1.742655E+002 -2.634653E-002 -2.122551E+001
  62.0000     -1.461045E+001 -1.200757E+002 -6.678169E-001  1.644115E+002 -8.589130E+001  1.430447E+002
              -6.638743E-001  1.644096E+002 -1.415738E+001 -9.899970E+001 -8.618025E+001  1.791598E+002
              -8.429676E+001  1.350524E+002 -8.505437E+001 -1.792437E+002 -2.761343E-002 -2.157247E+001
  63.0000     -1.366625E+001 -1.260753E+002 -7.230598E-001  1.601758E+002 -8.616273E+001  1.469934E+002
